Time [s],Packet ID,Address,Data,Read/Write,ACK/NAK
0.000000330000000,,0x3F,,Read,NAK
0.000694406000000,0,0x3F,0xFF,Read,NAK
6.010028732000000,0,0x25,0x00,Write,ACK
6.010117584000000,0,0x25,0x1A,Read,NAK
6.010247478000000,0,0x25,0x01,Write,ACK
6.010333100000000,0,0x25,0x65,Read,NAK
6.010438914000000,0,0x25,0x02,Write,ACK
6.010524752000000,0,0x25,0x72,Read,NAK
6.010634418000000,0,0x25,0x21,Write,ACK
6.010664218000000,0,0x25,0x5E,Write,ACK
6.010768270000000,0,0x25,0x22,Write,ACK
6.010798070000000,0,0x25,0x00,Write,ACK
6.010902136000000,0,0x25,0x41,Write,ACK
6.010931920000000,0,0x25,0x00,Write,ACK
6.012036220000000,0,0x25,0x01,Write,ACK
6.012122062000000,0,0x25,0x65,Read,NAK
6.012227672000000,0,0x25,0x02,Write,ACK
6.012313494000000,0,0x25,0x80,Read,NAK
6.012419016000000,0,0x25,0x51,Write,ACK
6.012504860000000,0,0x25,0x5E,Read,NAK
6.013176468000000,0,0x25,0x00,Write,ACK
6.013262510000000,0,0x25,0x1A,Read,NAK
6.013386470000000,0,0x25,0x01,Write,ACK
6.013472304000000,0,0x25,0x65,Read,NAK
6.013578028000000,0,0x25,0x02,Write,ACK
6.013663854000000,0,0x25,0x00,Read,NAK
6.013770084000000,0,0x25,0x21,Write,ACK
6.013799874000000,0,0x25,0x01,Write,ACK
6.013903918000000,0,0x25,0x22,Write,ACK
6.013933730000000,0,0x25,0x00,Write,ACK
6.014037778000000,0,0x25,0x41,Write,ACK
6.014067586000000,0,0x25,0x00,Write,ACK
6.015172610000000,0,0x25,0x01,Write,ACK
6.015258448000000,0,0x25,0x65,Read,NAK
6.015364156000000,0,0x25,0x02,Write,ACK
6.015449966000000,0,0x25,0x80,Read,NAK
6.015555606000000,0,0x25,0x51,Write,ACK
6.015641454000000,0,0x25,0x00,Read,NAK
6.015757478000000,0,0x25,0x52,Write,ACK
6.015843298000000,0,0x25,0xC5,Read,NAK
6.015965278000000,0,0x25,0x01,Write,ACK
6.016051116000000,0,0x25,0x65,Read,NAK
6.016156728000000,0,0x25,0x02,Write,ACK
6.016242564000000,0,0x25,0x00,Read,NAK
6.016348580000000,0,0x25,0x21,Write,ACK
6.016378392000000,0,0x25,0x06,Write,ACK
6.016482428000000,0,0x25,0x22,Write,ACK
6.016512224000000,0,0x25,0x3F,Write,ACK
6.016616286000000,0,0x25,0x41,Write,ACK
6.016646024000000,0,0x25,0x00,Write,ACK
6.017750286000000,0,0x25,0x01,Write,ACK
6.017836126000000,0,0x25,0x65,Read,NAK
6.017941734000000,0,0x25,0x02,Write,ACK
6.018027548000000,0,0x25,0x80,Read,NAK
6.018133186000000,0,0x25,0x51,Write,ACK
6.018219020000000,0,0x25,0x06,Read,NAK
6.018349724000000,0,0x25,0x01,Write,ACK
6.018435550000000,0,0x25,0x65,Read,NAK
6.018541186000000,0,0x25,0x02,Write,ACK
6.018627010000000,0,0x25,0x00,Read,NAK
6.018733036000000,0,0x25,0x21,Write,ACK
6.018762836000000,0,0x25,0x05,Write,ACK
6.018866992000000,0,0x25,0x22,Write,ACK
6.018896770000000,0,0x25,0x00,Write,ACK
6.019000832000000,0,0x25,0x41,Write,ACK
6.019030626000000,0,0x25,0x00,Write,ACK
6.020134734000000,0,0x25,0x01,Write,ACK
6.020220572000000,0,0x25,0x65,Read,NAK
6.020326178000000,0,0x25,0x02,Write,ACK
6.020382112000000,,0x25,,Read,NAK
6.020408788000000,0,0x25,0x40,Read,ACK
6.020517624000000,0,0x25,0x51,Write,ACK
6.020603468000000,0,0x25,0x05,Read,NAK
6.020718654000000,0,0x25,0x52,Write,ACK
6.020804502000000,0,0x25,0x3F,Read,NAK
6.020918954000000,0,0x25,0x08,Write,ACK
6.021004772000000,0,0x25,0x81,Read,NAK
6.021117904000000,0,0x25,0x08,Write,ACK
6.021203712000000,0,0x25,0x81,Read,NAK
6.021316740000000,0,0x25,0x02,Write,ACK
6.021402590000000,0,0x25,0x00,Read,NAK
6.021508090000000,0,0x25,0x06,Write,ACK
6.021593932000000,0,0x25,0x27,Read,NAK
6.021699846000000,0,0x25,0x0D,Write,ACK
6.021785688000000,0,0x25,0x47,Read,NAK
6.021905254000000,0,0x25,0x01,Write,ACK
6.021991092000000,0,0x25,0x65,Read,NAK
6.022096816000000,0,0x25,0x08,Write,ACK
6.022182624000000,0,0x25,0x81,Read,NAK
6.023976596000000,0,0x36,0x18,Write,ACK
6.024062740000000,0,0x36,0xB8,Read,ACK
6.024092220000000,0,0x36,0x0B,Read,NAK
6.024225020000000,0,0x25,0x02,Write,ACK
6.024310970000000,0,0x25,0x00,Read,NAK
6.024442196000000,0,0x25,0x06,Write,ACK
6.024528030000000,0,0x25,0x27,Read,NAK
6.024634184000000,0,0x25,0x0D,Write,ACK
6.024720000000000,0,0x25,0x47,Read,NAK
6.024839152000000,0,0x25,0x01,Write,ACK
6.024924986000000,0,0x25,0x65,Read,NAK
6.025030698000000,0,0x25,0x08,Write,ACK
6.025116518000000,0,0x25,0x81,Read,NAK
6.025233624000000,0,0x25,0x08,Write,ACK
6.025319410000000,0,0x25,0x81,Read,NAK
6.025425258000000,0,0x25,0x06,Write,ACK
6.025511114000000,0,0x25,0x27,Read,NAK
6.025616724000000,0,0x25,0x0D,Write,ACK
6.025702560000000,0,0x25,0x47,Read,NAK
6.025868470000000,0,0x25,0x01,Write,ACK
6.025954310000000,0,0x25,0x65,Read,NAK
6.026060242000000,0,0x25,0x02,Write,ACK
6.026146064000000,0,0x25,0x00,Read,NAK
6.026252408000000,0,0x25,0x21,Write,ACK
6.026282208000000,0,0x25,0x16,Write,ACK
6.026386360000000,0,0x25,0x22,Write,ACK
6.026416144000000,0,0x25,0x13,Write,ACK
6.026520212000000,0,0x25,0x41,Write,ACK
6.026550006000000,0,0x25,0x00,Write,ACK
6.036654534000000,0,0x25,0x01,Write,ACK
6.036740382000000,0,0x25,0x65,Read,NAK
6.036846094000000,0,0x25,0x02,Write,ACK
6.036931914000000,0,0x25,0x80,Read,NAK
6.037037452000000,0,0x25,0x51,Write,ACK
6.037123276000000,0,0x25,0x16,Read,NAK
6.037245846000000,0,0x25,0x01,Write,ACK
6.037328474000000,0,0x25,0x32,Read,NAK
6.037437306000000,0,0x25,0x02,Write,ACK
6.037523120000000,0,0x25,0x00,Read,NAK
6.037629170000000,0,0x25,0x21,Write,ACK
6.037658964000000,0,0x25,0x15,Write,ACK
6.037763014000000,0,0x25,0x22,Write,ACK
6.037792820000000,0,0x25,0x00,Write,ACK
6.037896864000000,0,0x25,0x41,Write,ACK
6.037926660000000,0,0x25,0x00,Write,ACK
6.048030994000000,0,0x25,0x01,Write,ACK
6.048116820000000,0,0x25,0x65,Read,NAK
6.048222536000000,0,0x25,0x02,Write,ACK
6.048308356000000,0,0x25,0x80,Read,NAK
6.048413874000000,0,0x25,0x51,Write,ACK
6.048499716000000,0,0x25,0x15,Read,NAK
6.048621266000000,0,0x25,0x52,Write,ACK
6.048707104000000,0,0x25,0x13,Read,NAK
6.048834248000000,0,0x69,0xC0,Write,ACK
6.048920108000000,0,0x69,0x13,Read,NAK
6.049026234000000,0,0x69,0xC0,Write,ACK
6.049056038000000,0,0x69,0x13,Write,ACK
6.049159566000000,0,0x69,0xC0,Write,ACK
6.049245404000000,0,0x69,0x13,Read,NAK
7.611583440000000,0,0x25,0x02,Write,ACK
7.611669926000000,0,0x25,0x00,Read,NAK
7.611777508000000,0,0x25,0x06,Write,ACK
7.611868852000000,0,0x25,0x27,Read,NAK
7.611978632000000,0,0x25,0x0D,Write,ACK
7.612069882000000,0,0x25,0x47,Read,NAK
7.612200922000000,0,0x25,0x01,Write,ACK
7.612262284000000,,0x24,,Read,NAK
7.612288920000000,0,0x24,0x32,Read,NAK
7.612398928000000,0,0x25,0x08,Write,ACK
7.612490270000000,0,0x25,0x81,Read,NAK
7.612619842000000,0,0x25,0x08,Write,ACK
7.612710972000000,0,0x25,0x81,Read,NAK
7.612818376000000,0,0x25,0x06,Write,ACK
7.612909528000000,0,0x25,0x27,Read,NAK
7.613016392000000,0,0x25,0x0D,Write,ACK
7.613107512000000,0,0x25,0x47,Read,NAK
7.613267002000000,0,0x25,0x02,Write,ACK
7.613358142000000,0,0x25,0x00,Read,NAK
7.613465102000000,0,0x25,0x06,Write,ACK
7.613556368000000,0,0x25,0x27,Read,NAK
7.613663228000000,0,0x25,0x0D,Write,ACK
7.613754584000000,0,0x25,0x47,Read,NAK
7.613873934000000,0,0x25,0x01,Write,ACK
7.613965292000000,0,0x25,0x65,Read,NAK
7.614072062000000,0,0x25,0x08,Write,ACK
7.614163510000000,0,0x25,0x81,Read,NAK
7.614296214000000,0,0x36,0x09,Write,ACK
7.614387556000000,0,0x36,0xBE,Read,ACK
7.614417032000000,0,0x36,0xD0,Read,NAK
7.617528930000000,0,0x69,0xBD,Write,ACK
7.617620094000000,0,0x69,0x00,Read,NAK
7.617729132000000,0,0x69,0xBD,Write,ACK
7.617758940000000,0,0x69,0x0C,Write,ACK
7.617865058000000,0,0x69,0xBA,Write,ACK
7.617894864000000,0,0x69,0xD9,Write,ACK
7.618000478000000,0,0x69,0xB8,Write,ACK
7.618091614000000,0,0x69,0x91,Read,NAK
7.618199208000000,0,0x69,0xB8,Write,ACK
7.618229024000000,0,0x69,0x11,Write,ACK
7.618340258000000,0,0x36,0x09,Write,ACK
7.618431594000000,0,0x36,0xBE,Read,ACK
7.618461084000000,0,0x36,0xD0,Read,NAK
7.618593674000000,0,0x69,0xBB,Write,ACK
7.618623478000000,0,0x69,0x13,Write,ACK
7.618729240000000,0,0x69,0xBD,Write,ACK
7.618820626000000,0,0x69,0x0C,Read,NAK
7.618928008000000,0,0x69,0xBD,Write,ACK
7.618957806000000,0,0x69,0x0C,Write,ACK
7.619063518000000,0,0x69,0xB2,Write,ACK
7.619154870000000,0,0x69,0xD7,Read,NAK
7.619271008000000,0,0x69,0xC3,Write,ACK
7.619300830000000,0,0x69,0x68,Write,ACK
7.619407042000000,0,0x69,0xB7,Write,ACK
7.619436852000000,0,0x69,0x04,Write,ACK
7.619542456000000,0,0x69,0xB7,Write,ACK
7.619633828000000,0,0x69,0x04,Read,NAK
7.619745700000000,0,0x69,0x5B,Write,NAK
7.619775184000000,0,0x69,0x02,Write,ACK
7.619884108000000,0,0x69,0xB7,Write,ACK
7.619975382000000,0,0x69,0x04,Read,NAK
7.620087340000000,0,0x26,0x00,Read,NAK
7.620181820000000,0,0x25,0x65,Read,NAK
7.620288788000000,0,0x25,0x02,Write,ACK
7.620380562000000,0,0x25,0x00,Read,NAK
7.620490546000000,0,0x25,0x20,Write,NAK
7.620516804000000,0,0x25,0x2B,Write,NAK
7.620626886000000,0,0x25,0x22,Write,ACK
7.620656692000000,0,0x25,0x03,Write,ACK
7.620763346000000,0,0x25,0x41,Write,ACK
7.620793124000000,0,0x25,0x00,Write,ACK
7.630900068000000,0,0x25,0x01,Write,ACK
7.630991532000000,0,0x25,0x65,Read,NAK
7.631098506000000,0,0x25,0x02,Write,ACK
7.631189736000000,0,0x25,0x80,Read,NAK
7.631296498000000,0,0x25,0x51,Write,ACK
7.631387750000000,0,0x25,0x57,Read,NAK
7.631512620000000,0,0x69,0xB3,Write,ACK
7.631603860000000,0,0x69,0xE0,Read,NAK
7.631728128000000,0,0x69,0xB7,Write,ACK
7.631819494000000,0,0x69,0x04,Read,NAK
7.631933622000000,0,0x69,0xB7,Write,ACK
7.631963452000000,0,0x69,0x04,Write,ACK
7.637069508000000,0,0x69,0xB7,Write,ACK
7.637161500000000,0,0x69,0x04,Read,NAK
7.637273992000000,0,0x69,0x5B,Write,NAK
7.637368846000000,0,0x69,0x02,Read,ACK
7.637482816000000,0,0x69,0xB7,Write,ACK
7.637512626000000,0,0x69,0x05,Write,ACK
7.642619292000000,0,0x69,0xB7,Write,ACK
7.642710570000000,0,0x69,0x05,Read,NAK
7.642825656000000,0,0x25,0x02,Write,ACK
7.642916804000000,0,0x25,0x00,Read,NAK
7.643023566000000,0,0x25,0x06,Write,ACK
7.643114712000000,0,0x25,0x27,Read,NAK
7.643221578000000,0,0x25,0x0D,Write,ACK
7.643312922000000,0,0x25,0x47,Read,NAK
7.643433122000000,0,0x25,0x01,Write,ACK
7.643524386000000,0,0x25,0x65,Read,NAK
7.643628098000000,0,0x25,0x04,Write,ACK
7.643722360000000,0,0x25,0x81,Read,NAK
7.643839978000000,0,0x25,0x08,Write,ACK
7.643931426000000,0,0x25,0x81,Read,NAK
7.644038190000000,0,0x25,0x06,Write,ACK
7.644129456000000,0,0x25,0x27,Read,NAK
7.644236304000000,0,0x25,0x0D,Write,ACK
7.644327554000000,0,0x25,0x47,Read,NAK
7.644482444000000,0,0x25,0x01,Write,ACK
7.644573588000000,0,0x25,0x65,Read,NAK
7.644680558000000,0,0x25,0x02,Write,ACK
7.644771916000000,0,0x25,0x00,Read,NAK
7.644879298000000,0,0x25,0x21,Write,ACK
7.644909092000000,0,0x25,0x16,Write,ACK
7.645015118000000,0,0x25,0x22,Write,ACK
7.645044904000000,0,0x25,0x13,Write,ACK
7.645151054000000,0,0x25,0x41,Write,ACK
7.645180844000000,0,0x25,0x00,Write,ACK
7.655286632000000,0,0x25,0x01,Write,ACK
7.655378084000000,0,0x25,0x65,Read,NAK
7.655485054000000,0,0x25,0x02,Write,ACK
7.655576300000000,0,0x25,0x80,Read,NAK
7.655683172000000,0,0x25,0x51,Write,ACK
7.655774434000000,0,0x25,0x16,Read,NAK
7.655898798000000,0,0x25,0x01,Write,ACK
7.655990138000000,0,0x25,0x65,Read,NAK
7.656097218000000,0,0x25,0x02,Write,ACK
7.656188464000000,0,0x25,0x00,Read,NAK
7.656295844000000,0,0x25,0x21,Write,ACK
7.656325632000000,0,0x25,0x15,Write,ACK
7.656431466000000,0,0x25,0x22,Write,ACK
7.656461248000000,0,0x25,0x00,Write,ACK
7.656567292000000,0,0x25,0x41,Write,ACK
7.656597082000000,0,0x25,0x00,Write,ACK
7.666702872000000,0,0x25,0x01,Write,ACK
7.666794126000000,0,0x25,0x65,Read,NAK
7.666901182000000,0,0x25,0x02,Write,ACK
7.666992424000000,0,0x25,0x80,Read,NAK
7.667099196000000,0,0x25,0x51,Write,ACK
7.667190554000000,0,0x25,0x15,Read,NAK
7.667306594000000,0,0x25,0x52,Write,ACK
7.667397850000000,0,0x25,0x13,Read,NAK
7.667521142000000,0,0x69,0xC0,Write,ACK
7.667612410000000,0,0x69,0x13,Read,NAK
7.667719774000000,0,0x69,0xC0,Write,ACK
7.667749572000000,0,0x69,0x13,Write,ACK
7.667854970000000,0,0x69,0xC0,Write,ACK
7.667946348000000,0,0x69,0x13,Read,NAK
7.668074664000000,0,0x36,0x09,Write,ACK
7.668165920000000,0,0x36,0x00,Read,ACK
7.668195372000000,0,0x36,0xD2,Read,NAK
7.668309748000000,0,0x69,0xB9,Write,ACK
7.668401014000000,0,0x69,0x49,Read,NAK
7.668520256000000,0,0x69,0xB9,Write,ACK
7.668550060000000,0,0x69,0x4A,Write,ACK
7.668666912000000,0,0x69,0xB9,Write,ACK
7.668758376000000,0,0x69,0x4A,Read,NAK
7.818867076000000,0,0x69,0xB7,Write,ACK
7.818958566000000,0,0x69,0x05,Read,NAK
7.819073846000000,0,0x69,0xB7,Write,ACK
7.819103654000000,0,0x69,0x05,Write,ACK
7.824210014000000,0,0x69,0xB7,Write,ACK
7.824301372000000,0,0x69,0x05,Read,NAK
7.824415730000000,0,0x69,0xB7,Write,ACK
7.824506892000000,0,0x69,0x05,Read,NAK
7.824621046000000,0,0x69,0xB7,Write,ACK
7.824650838000000,0,0x69,0x05,Write,ACK
7.829757414000000,0,0x69,0xB7,Write,ACK
7.829848774000000,0,0x69,0x05,Read,NAK
7.829964292000000,0,0x25,0x0A,Write,ACK
7.830055642000000,0,0x25,0x51,Read,NAK
7.830162932000000,0,0x25,0x0C,Write,ACK
7.830254284000000,0,0x25,0x19,Read,NAK
7.830393334000000,0,0x25,0x02,Write,ACK
7.830484698000000,0,0x25,0x00,Read,NAK
7.830591768000000,0,0x25,0x06,Write,ACK
7.830683012000000,0,0x25,0x27,Read,NAK
7.830789866000000,0,0x25,0x0D,Write,ACK
7.830881128000000,0,0x25,0x47,Read,NAK
7.831000270000000,0,0x25,0x01,Write,ACK
7.831091520000000,0,0x25,0x65,Read,NAK
7.831198592000000,0,0x25,0x08,Write,ACK
7.831289930000000,0,0x25,0x81,Read,NAK
7.831407234000000,0,0x25,0x08,Write,ACK
7.831498352000000,0,0x25,0x81,Read,NAK
7.831605454000000,0,0x25,0x06,Write,ACK
7.831696696000000,0,0x25,0x27,Read,NAK
7.831803768000000,0,0x25,0x0D,Write,ACK
7.831894926000000,0,0x25,0x47,Read,NAK
7.832048752000000,0,0x25,0x01,Write,ACK
7.832139908000000,0,0x25,0x65,Read,NAK
7.832246978000000,0,0x25,0x02,Write,ACK
7.832338226000000,0,0x25,0x00,Read,NAK
7.832445726000000,0,0x25,0x21,Write,ACK
7.832475508000000,0,0x25,0x16,Write,ACK
7.832581840000000,0,0x25,0x22,Write,ACK
7.832611642000000,0,0x25,0x13,Write,ACK
7.832717588000000,0,0x25,0x41,Write,ACK
7.832747374000000,0,0x25,0x00,Write,ACK
7.842853260000000,0,0x25,0x01,Write,ACK
7.842944626000000,0,0x25,0x65,Read,NAK
7.843051582000000,0,0x25,0x02,Write,ACK
7.843142926000000,0,0x25,0x80,Read,NAK
7.843246574000000,0,0x32,0x28,Read,NAK
7.843340952000000,0,0x25,0x16,Read,NAK
7.843465608000000,0,0x25,0x01,Write,ACK
7.843557082000000,0,0x25,0x65,Read,NAK
7.843663942000000,0,0x25,0x02,Write,ACK
7.843755192000000,0,0x25,0x00,Read,NAK
7.843862480000000,0,0x25,0x21,Write,ACK
7.843892254000000,0,0x25,0x15,Write,ACK
7.843998092000000,0,0x25,0x22,Write,ACK
7.844027874000000,0,0x25,0x00,Write,ACK
7.844133816000000,0,0x25,0x41,Write,ACK
7.844163600000000,0,0x25,0x00,Write,ACK
7.854269806000000,0,0x25,0x01,Write,ACK
7.854361058000000,0,0x25,0x65,Read,NAK
7.854467722000000,0,0x25,0x02,Write,ACK
7.854558956000000,0,0x25,0x80,Read,NAK
7.854665724000000,0,0x25,0x51,Write,ACK
7.854756980000000,0,0x25,0x15,Read,NAK
7.854873210000000,0,0x25,0x52,Write,ACK
7.854964556000000,0,0x25,0x13,Read,NAK
7.855087568000000,0,0x69,0xC0,Write,ACK
7.855178930000000,0,0x69,0x13,Read,NAK
7.855286294000000,0,0x69,0xC0,Write,ACK
7.855316094000000,0,0x69,0x13,Write,ACK
7.855421612000000,0,0x69,0xC0,Write,ACK
7.855512764000000,0,0x69,0x13,Read,NAK
7.855640152000000,0,0x36,0x09,Write,ACK
7.855731390000000,0,0x36,0xDC,Read,ACK
7.855760870000000,0,0x36,0xD8,Read,NAK
7.855875124000000,0,0x69,0xB9,Write,ACK
7.855966388000000,0,0x69,0x4A,Read,NAK
7.856073656000000,0,0x69,0xB9,Write,ACK
7.856103456000000,0,0x69,0x4A,Write,ACK
7.856208738000000,0,0x69,0xB9,Write,ACK
7.856299914000000,0,0x69,0x4A,Read,NAK
8.006407668000000,0,0x69,0xB7,Write,ACK
8.006499152000000,0,0x69,0x05,Read,NAK
8.006614742000000,0,0x69,0xB7,Write,ACK
8.006644551999999,0,0x69,0x05,Write,ACK
8.011750916000000,0,0x69,0xB7,Write,ACK
8.011842180000000,0,0x69,0x05,Read,NAK
8.011957160000000,0,0x69,0xB7,Write,ACK
8.012048622000000,0,0x69,0x05,Read,NAK
8.012162763999999,0,0x69,0xB7,Write,ACK
8.012192570000000,0,0x69,0x05,Write,ACK
8.017298946000000,0,0x69,0xB7,Write,ACK
8.017390410000001,0,0x69,0x05,Read,NAK
8.017510718000000,0,0x36,0x09,Write,ACK
8.017602050000001,0,0x36,0xD6,Read,ACK
8.017631522000000,0,0x36,0xD8,Read,NAK
8.020730098000000,0,0x69,0xBE,Write,ACK
8.020821470000000,0,0x69,0x30,Read,NAK
8.020929272000000,0,0x69,0xBE,Write,ACK
8.020959061999999,0,0x69,0x30,Write,ACK
8.021088116000000,0,0x36,0x18,Write,ACK
8.021179249999999,0,0x36,0xB8,Read,ACK
8.021208745999999,0,0x36,0x0B,Read,NAK
8.021314980000000,0,0x36,0x00,Write,ACK
8.021406210000000,0,0x36,0x82,Read,ACK
8.021435710000000,0,0x36,0x00,Read,NAK
8.021541724000000,0,0x36,0xB2,Write,ACK
8.021632978000000,0,0x36,0x80,Read,ACK
8.021662482000000,0,0x36,0x7F,Read,NAK
8.021819324000001,0,0x36,0x09,Write,ACK
8.021910774000000,0,0x36,0xD6,Read,ACK
8.021940241999999,0,0x36,0xD8,Read,NAK
8.022073978000000,0,0x69,0xB7,Write,ACK
8.022165370000000,0,0x69,0x05,Read,NAK
8.022279092000000,0,0x69,0xB7,Write,ACK
8.022308890000000,0,0x69,0x05,Write,ACK
8.027415050000000,0,0x69,0xB7,Write,ACK
8.027506416000000,0,0x69,0x05,Read,NAK
8.027620760000000,0,0x69,0xB7,Write,ACK
8.027712026000000,0,0x69,0x05,Read,NAK
8.027825746000000,0,0x69,0xB7,Write,ACK
8.027855539999999,0,0x69,0x04,Write,ACK
8.032962030000000,0,0x69,0xB7,Write,ACK
8.033053499999999,0,0x69,0x04,Read,NAK
8.033160876000000,0,0x69,0xC1,Write,ACK
8.033190676000000,0,0x69,0x14,Write,ACK
8.333296334000000,0,0x36,0x00,Write,ACK
8.333387584000000,0,0x36,0x82,Read,ACK
8.333417086000001,0,0x36,0x00,Read,NAK
8.333524978000000,0,0x36,0x62,Write,ACK
8.333554778000000,0,0x36,0x59,Write,ACK
8.333584564000001,0,0x36,0x00,Write,ACK
8.333690175999999,0,0x36,0x63,Write,ACK
8.333719953999999,0,0x36,0xC4,Write,ACK
8.333749764000000,0,0x36,0x00,Write,ACK
8.333855770000000,0,0x36,0x80,Write,ACK
8.333885582000001,0,0x36,0x10,Write,ACK
8.333915354000000,0,0x36,0x82,Write,ACK
8.333945168000000,0,0x36,0x40,Write,ACK
8.333974926000000,0,0x36,0xA8,Write,ACK
8.334004724000000,0,0x36,0xD0,Write,ACK
8.334034515999999,0,0x36,0xB7,Write,ACK
8.334064326000000,0,0x36,0x10,Write,ACK
8.334094090000001,0,0x36,0xB9,Write,ACK
8.334123906000000,0,0x36,0x20,Write,ACK
8.334153680000000,0,0x36,0xBC,Write,ACK
8.334183478000000,0,0x36,0xB0,Write,ACK
8.334213234000000,0,0x36,0xBD,Write,ACK
8.334243058000000,0,0x36,0xD0,Write,ACK
8.334272845999999,0,0x36,0xBE,Write,ACK
8.334302628000000,0,0x36,0xC0,Write,ACK
8.334332420000001,0,0x36,0xBF,Write,ACK
8.334362230000000,0,0x36,0x20,Write,ACK
8.334392002000000,0,0x36,0xC1,Write,ACK
8.334421792000001,0,0x36,0x90,Write,ACK
8.334451570000001,0,0x36,0xC3,Write,ACK
8.334481386000000,0,0x36,0x60,Write,ACK
8.334511158000000,0,0x36,0xC6,Write,ACK
8.334540968000001,0,0x36,0x40,Write,ACK
8.334570736000000,0,0x36,0xC9,Write,ACK
8.334600529999999,0,0x36,0xF0,Write,ACK
8.334630320000000,0,0x36,0xCD,Write,ACK
8.334660100000001,0,0x36,0xF0,Write,ACK
8.334689898000001,0,0x36,0xD1,Write,ACK
8.334719710000000,0,0x36,0x40,Write,ACK
8.334749478000001,0,0x36,0xD5,Write,ACK
8.334779270000000,0,0x36,0xD0,Write,ACK
8.334809057999999,0,0x36,0xDA,Write,ACK
8.334916136000000,0,0x36,0x90,Write,ACK
8.334945941999999,0,0x36,0x20,Write,ACK
8.334975736000001,0,0x36,0x00,Write,ACK
8.335005526000000,0,0x36,0x50,Write,ACK
8.335035316000001,0,0x36,0x01,Write,ACK
8.335065088000000,0,0x36,0xD0,Write,ACK
8.335094882000000,0,0x36,0x11,Write,ACK
8.335124660000000,0,0x36,0xC0,Write,ACK
8.335154473999999,0,0x36,0x10,Write,ACK
8.335184246000001,0,0x36,0xD0,Write,ACK
8.335214042000000,0,0x36,0x14,Write,ACK
8.335243830000000,0,0x36,0x10,Write,ACK
8.335273625999999,0,0x36,0x1A,Write,ACK
8.335303412000000,0,0x36,0xE0,Write,ACK
8.335333225999999,0,0x36,0x14,Write,ACK
8.335362992000000,0,0x36,0xD0,Write,ACK
8.335392794000001,0,0x36,0x12,Write,ACK
8.335422568000000,0,0x36,0xD0,Write,ACK
8.335452366000000,0,0x36,0x0B,Write,ACK
8.335482164000000,0,0x36,0x30,Write,ACK
8.335511951999999,0,0x36,0x08,Write,ACK
8.335541740000000,0,0x36,0x00,Write,ACK
8.335571531999999,0,0x36,0x08,Write,ACK
8.335601332000000,0,0x36,0x00,Write,ACK
8.335631132000000,0,0x36,0x09,Write,ACK
8.335660910000000,0,0x36,0x40,Write,ACK
8.335690688000000,0,0x36,0x07,Write,ACK
8.335720454000001,0,0x36,0xF0,Write,ACK
8.335750266000000,0,0x36,0x06,Write,ACK
8.335780054000001,0,0x36,0x30,Write,ACK
8.335809852000001,0,0x36,0x08,Write,ACK
8.335839644000000,0,0x36,0x30,Write,ACK
8.335869444000000,0,0x36,0x08,Write,ACK
8.335977531999999,0,0x36,0xA0,Write,ACK
8.336007331999999,0,0x36,0x00,Write,ACK
8.336037134000000,0,0x36,0x02,Write,ACK
8.336066922000001,0,0x36,0x00,Write,ACK
8.336096716000000,0,0x36,0x02,Write,ACK
8.336126502000001,0,0x36,0x00,Write,ACK
8.336156286000000,0,0x36,0x02,Write,ACK
8.336186078000001,0,0x36,0x00,Write,ACK
8.336215876000001,0,0x36,0x02,Write,ACK
8.336245666000000,0,0x36,0x00,Write,ACK
8.336271913999999,0,0x36,0x01,Write,ACK
8.336301693999999,0,0x36,0x00,Write,ACK
8.336331491999999,0,0x36,0x01,Write,ACK
8.336361288000001,0,0x36,0x00,Write,ACK
8.336391078000000,0,0x36,0x01,Write,ACK
8.336420865999999,0,0x36,0x00,Write,ACK
8.336450658000000,0,0x36,0x01,Write,ACK
8.336480443999999,0,0x36,0x00,Write,ACK
8.336510238000001,0,0x36,0x01,Write,ACK
8.336540034000000,0,0x36,0x00,Write,ACK
8.336569814000001,0,0x36,0x01,Write,ACK
8.336599604000000,0,0x36,0x00,Write,ACK
8.336625738000000,0,0x36,0x00,Write,NAK
8.336655538000000,0,0x36,0x00,Write,ACK
8.336685336000000,0,0x36,0x00,Write,NAK
8.336715126000000,0,0x36,0x00,Write,ACK
8.336744902000000,0,0x36,0x00,Write,NAK
8.336774696000001,0,0x36,0x00,Write,ACK
8.336801255999999,0,0x36,0x00,Write,ACK
8.336831036000000,0,0x36,0x80,Write,ACK
8.336860840000000,0,0x36,0x00,Write,ACK
8.336890611999999,0,0x36,0x80,Write,ACK
8.336920429999999,0,0x36,0x00,Write,ACK
8.337039455999999,0,0x36,0x80,Write,ACK
8.337131454000000,0,0x36,0x10,Read,ACK
8.337160890000000,0,0x36,0x82,Read,ACK
8.337190388000000,0,0x36,0x40,Read,ACK
8.337219852000000,0,0x36,0xA8,Read,ACK
8.337249352000001,0,0x36,0xD0,Read,ACK
8.337278818000000,0,0x36,0xB7,Read,ACK
8.337308309999999,0,0x36,0x10,Read,ACK
8.337337767999999,0,0x36,0xB9,Read,ACK
8.337367272000000,0,0x36,0x20,Read,ACK
8.337396684000000,0,0x36,0xDE,Read,ACK
8.337422908000001,0,0x36,0x58,Read,ACK
8.337452372000000,0,0x36,0x5E,Read,NAK
8.337481850000000,0,0x36,0x68,Read,ACK
8.337511340000001,0,0x36,0x5F,Read,ACK
8.337540818000001,0,0x36,0x60,Read,ACK
8.337570296000001,0,0x36,0x5F,Read,NAK
8.337599762000000,0,0x36,0x10,Read,ACK
8.337629244000000,0,0x36,0x60,Read,NAK
8.337658716000000,0,0x36,0x48,Read,ACK
8.337688196000000,0,0x36,0x61,Read,NAK
8.337717676000000,0,0x36,0x30,Read,ACK
8.337747146000000,0,0x36,0x63,Read,ACK
8.337776626000000,0,0x36,0x20,Read,ACK
8.337806120000000,0,0x36,0x64,Read,NAK
8.337835584000000,0,0x36,0x78,Read,ACK
8.337865056000000,0,0x36,0x66,Read,NAK
8.337894534000000,0,0x36,0x78,Read,ACK
8.337924012000000,0,0x36,0x68,Read,NAK
8.337953492000000,0,0x36,0x20,Read,ACK
8.337982968000000,0,0x36,0x6A,Read,NAK
8.338012444000000,0,0x36,0x68,Read,ACK
8.338041906000001,0,0x36,0x6D,Read,ACK
8.338168972000000,0,0x36,0x90,Write,ACK
8.338260355999999,0,0x36,0x20,Read,ACK
8.338289836000000,0,0x36,0x00,Read,ACK
8.338319289999999,0,0x36,0x50,Read,ACK
8.338348802000001,0,0x36,0x01,Read,ACK
8.338378232000000,0,0x36,0xD0,Read,ACK
8.338407738000001,0,0x36,0x11,Read,ACK
8.338437192000001,0,0x36,0xC0,Read,ACK
8.338466686000000,0,0x36,0x10,Read,ACK
8.338496154000000,0,0x36,0xD0,Read,ACK
8.338525632000000,0,0x36,0x14,Read,ACK
8.338555124000001,0,0x36,0x10,Read,ACK
8.338584600000001,0,0x36,0x1A,Read,ACK
8.338614050000000,0,0x36,0xE0,Read,ACK
8.338643544000000,0,0x36,0x14,Read,ACK
8.338673002000000,0,0x36,0xD0,Read,ACK
8.338702509999999,0,0x36,0x12,Read,ACK
8.338731965999999,0,0x36,0xD0,Read,ACK
8.338761456000000,0,0x36,0x0B,Read,ACK
8.338790936000001,0,0x36,0x30,Read,ACK
8.338820428000000,0,0x36,0x08,Read,ACK
8.338849890000001,0,0x36,0x00,Read,ACK
8.338879373999999,0,0x36,0x08,Read,ACK
8.338908854000000,0,0x36,0x00,Read,ACK
8.338938307999999,0,0x36,0x09,Read,ACK
8.338967816000000,0,0x36,0x40,Read,ACK
8.338997288000000,0,0x36,0x07,Read,ACK
8.339026750000000,0,0x36,0xF0,Read,ACK
8.339056240000000,0,0x36,0x06,Read,ACK
8.339085710000001,0,0x36,0x30,Read,ACK
8.339115189999999,0,0x36,0x08,Read,ACK
8.339144667999999,0,0x36,0x30,Read,ACK
8.339174152000000,0,0x36,0x08,Read,NAK
8.339304638000000,0,0x36,0xA0,Write,ACK
8.339396131999999,0,0x36,0x00,Read,ACK
8.339425592000000,0,0x36,0x02,Read,ACK
8.339455072000000,0,0x36,0x00,Read,ACK
8.339484543999999,0,0x36,0x02,Read,ACK
8.339514034000000,0,0x36,0x00,Read,ACK
8.339543492000001,0,0x36,0x02,Read,ACK
8.339572978000000,0,0x36,0x00,Read,ACK
8.339602466000001,0,0x36,0x02,Read,ACK
8.339631924000001,0,0x36,0x00,Read,ACK
8.339661408000000,0,0x36,0x02,Read,ACK
8.339690898000001,0,0x36,0x00,Read,ACK
8.339720357999999,0,0x36,0x02,Read,ACK
8.339749846000000,0,0x36,0x00,Read,ACK
8.339779324000000,0,0x36,0x02,Read,ACK
8.339808800000000,0,0x36,0x00,Read,ACK
8.339838282000001,0,0x36,0x02,Read,ACK
8.339867754000000,0,0x36,0x00,Read,ACK
8.339897234000000,0,0x36,0x02,Read,ACK
8.339926706000000,0,0x36,0x00,Read,ACK
8.339956204000000,0,0x36,0x02,Read,ACK
8.339985670000001,0,0x36,0x00,Read,ACK
8.340015144000001,0,0x36,0x02,Read,ACK
8.340044624000001,0,0x36,0x00,Read,ACK
8.340074103999999,0,0x36,0x02,Read,ACK
8.340103584000000,0,0x36,0x00,Read,ACK
8.340133054000001,0,0x36,0x02,Read,ACK
8.340162530000001,0,0x36,0x00,Read,ACK
8.340192008000001,0,0x36,0x02,Read,ACK
8.340221489999999,0,0x36,0x00,Read,ACK
8.340250965999999,0,0x36,0x02,Read,ACK
8.340280441999999,0,0x36,0x00,Read,ACK
8.340309912000000,0,0x36,0x02,Read,NAK
8.340432606000000,0,0x36,0x62,Write,ACK
8.340462408000000,0,0x36,0x00,Write,ACK
8.340492196000000,0,0x36,0x00,Write,ACK
8.340597508000000,0,0x36,0x63,Write,ACK
8.340627297999999,0,0x36,0x00,Write,ACK
8.340657084000000,0,0x36,0x00,Write,ACK
8.340761532000000,0,0x36,0x80,Write,ACK
8.340853006000000,0,0x36,0xFF,Read,ACK
8.340882470000000,0,0x36,0xFF,Read,ACK
8.340911946000000,0,0x36,0xFF,Read,ACK
8.340941426000001,0,0x36,0xFF,Read,ACK
8.340970900000000,0,0x36,0xFF,Read,ACK
8.341000382000001,0,0x36,0xFF,Read,ACK
8.341029850000000,0,0x36,0xFF,Read,ACK
8.341059336000001,0,0x36,0xFF,Read,ACK
8.341088812000001,0,0x36,0xFF,Read,ACK
8.341118302000000,0,0x36,0xFF,Read,ACK
8.341147774000000,0,0x36,0xFF,Read,ACK
8.341177256000000,0,0x36,0xFF,Read,ACK
8.341206728000000,0,0x36,0xFF,Read,ACK
8.341236200000001,0,0x36,0xFF,Read,ACK
8.341265690000000,0,0x36,0xFF,Read,ACK
8.341295154000001,0,0x36,0xFF,Read,ACK
8.341324638000000,0,0x36,0xFF,Read,ACK
8.341354124000000,0,0x36,0xFF,Read,ACK
8.341383596000000,0,0x36,0xFF,Read,ACK
8.341413076000000,0,0x36,0xFF,Read,ACK
8.341442552000000,0,0x36,0xFF,Read,ACK
8.341472036000001,0,0x36,0xFF,Read,ACK
8.341501498000000,0,0x36,0xFF,Read,ACK
8.341530984000000,0,0x36,0xFF,Read,ACK
8.341560456000000,0,0x36,0xFF,Read,ACK
8.341589932000000,0,0x36,0xFF,Read,ACK
8.341619406000000,0,0x36,0xFF,Read,ACK
8.341648898000001,0,0x36,0xFF,Read,ACK
8.341678370000000,0,0x36,0xFF,Read,ACK
8.341707842000000,0,0x36,0xFF,Read,ACK
8.341737324000000,0,0x36,0xFF,Read,ACK
8.341766802000000,0,0x36,0xFF,Read,NAK
8.341888581999999,0,0x36,0x90,Write,ACK
8.341979818000000,0,0x36,0xFF,Read,ACK
8.342009286000000,0,0x36,0xFF,Read,ACK
8.342038759999999,0,0x36,0xFF,Read,ACK
8.342068248000000,0,0x36,0xFF,Read,ACK
8.342097720000000,0,0x36,0xFF,Read,ACK
8.342127208000001,0,0x36,0xFF,Read,ACK
8.342156672000000,0,0x36,0xFF,Read,ACK
8.342186146000000,0,0x36,0xFF,Read,ACK
8.342215639999999,0,0x36,0xFF,Read,ACK
8.342245104000000,0,0x36,0xFF,Read,ACK
8.342274578000000,0,0x36,0xFF,Read,ACK
8.342304076000000,0,0x36,0xFF,Read,ACK
8.342333544000001,0,0x36,0xFF,Read,ACK
8.342363030000000,0,0x36,0xFF,Read,ACK
8.342392492000000,0,0x36,0xFF,Read,ACK
8.342421986000000,0,0x36,0xFF,Read,ACK
8.342451448000000,0,0x36,0xFF,Read,ACK
8.342480932000001,0,0x36,0xFF,Read,ACK
8.342510408000001,0,0x36,0xFF,Read,ACK
8.342539880000000,0,0x36,0xFF,Read,ACK
8.342569365999999,0,0x36,0xFF,Read,ACK
8.342598840000001,0,0x36,0xFF,Read,ACK
8.342628317999999,0,0x36,0xFF,Read,ACK
8.342657795999999,0,0x36,0xFF,Read,ACK
8.342687280000000,0,0x36,0xFF,Read,ACK
8.342716749999999,0,0x36,0xFF,Read,ACK
8.342746224000001,0,0x36,0xFF,Read,ACK
8.342775696000000,0,0x36,0xFF,Read,ACK
8.342805181999999,0,0x36,0xFF,Read,ACK
8.342834672000000,0,0x36,0xFF,Read,ACK
8.342864135999999,0,0x36,0xFF,Read,ACK
8.342893613999999,0,0x36,0xFF,Read,NAK
8.343015164000001,0,0x36,0xA0,Write,ACK
8.343106632000000,0,0x36,0xFF,Read,ACK
8.343136100000001,0,0x36,0xFF,Read,ACK
8.343165576000001,0,0x36,0xFF,Read,ACK
8.343195052000000,0,0x36,0xFF,Read,ACK
8.343224532000001,0,0x36,0xFF,Read,ACK
8.343254011999999,0,0x36,0xFF,Read,ACK
8.343283489999999,0,0x36,0xFF,Read,ACK
8.343312958000000,0,0x36,0xFF,Read,ACK
8.343342442000001,0,0x36,0xFF,Read,ACK
8.343371923999999,0,0x36,0xFF,Read,NAK
8.343398098000000,0,0x36,0x7F,Read,NAK
8.343427560000000,0,0x36,0x7F,Read,NAK
8.343457044000001,0,0x36,0x7F,Read,NAK
8.343486520000001,0,0x36,0x7F,Read,NAK
8.343515996000001,0,0x36,0x7F,Read,NAK
8.343545470000000,0,0x36,0x7F,Read,NAK
8.343574953999999,0,0x36,0x7F,Read,NAK
8.343604431999999,0,0x36,0x7F,Read,NAK
8.343633918000000,0,0x36,0x7F,Read,NAK
8.343663402000001,0,0x36,0x7F,Read,NAK
8.343692870000000,0,0x36,0x7F,Read,NAK
8.343722350000000,0,0x36,0x7F,Read,NAK
8.343751828000000,0,0x36,0x7F,Read,NAK
8.343781308000001,0,0x36,0x7F,Read,NAK
8.343807198000000,0,0x36,0xBF,Read,NAK
8.343836694000000,0,0x36,0xBF,Read,NAK
8.343866161999999,0,0x36,0xBF,Read,NAK
8.343895637999999,0,0x36,0xBF,Read,NAK
8.343925118000000,0,0x36,0xBF,Read,NAK
8.343954600000000,0,0x36,0xBF,Read,NAK
8.343984084000001,0,0x36,0xBF,Read,NAK
8.344013554000000,0,0x36,0xBF,Read,NAK
8.344139402000000,0,0x36,0x02,Write,NAK
8.344168878000000,0,0x36,0x00,Write,ACK
8.344198668000001,0,0x36,0x00,Write,ACK
8.347307644000001,0,0x36,0x05,Write,ACK
8.347398886000001,0,0x36,0x00,Read,ACK
8.347428364000001,0,0x36,0x00,Read,NAK
8.347535126000000,0,0x36,0x36,Write,ACK
8.347564911999999,0,0x36,0x0B,Write,ACK
8.347594708000001,0,0x36,0x0E,Write,ACK
8.350700192000000,0,0x36,0x36,Write,ACK
8.350791628000000,0,0x36,0x0B,Read,ACK
8.350821108000000,0,0x36,0x0E,Read,NAK
8.350928180000000,0,0x36,0x2A,Write,ACK
8.350957972000000,0,0x36,0x3C,Write,ACK
8.350987763999999,0,0x36,0x04,Write,ACK
8.351092946000000,0,0x36,0x60,Write,ACK
8.351119210000000,0,0x36,0x40,Write,ACK
8.351149008000000,0,0x36,0x00,Write,ACK
8.351257100000000,0,0x36,0xFF,Write,ACK
8.351348356000001,0,0x36,0x8D,Read,ACK
8.351377844000000,0,0x36,0x63,Read,NAK
8.351484500000000,0,0x36,0x48,Write,ACK
8.351514269999999,0,0x36,0x8D,Write,ACK
8.351544082000000,0,0x36,0x63,Write,ACK
8.354649419999999,0,0x36,0x48,Write,ACK
8.354740546000000,0,0x36,0x8D,Read,ACK
8.354770062000000,0,0x36,0x63,Read,NAK
8.354877024000000,0,0x36,0x28,Write,ACK
8.354906822000000,0,0x36,0x06,Write,ACK
8.354936594000000,0,0x36,0x26,Write,ACK
8.355041394000001,0,0x36,0x1D,Write,ACK
8.355071177999999,0,0x36,0x10,Write,ACK
8.355100966000000,0,0x36,0x02,Write,ACK
8.355206050000000,0,0x36,0xBB,Write,ACK
8.355235854000000,0,0x36,0x50,Write,ACK
8.355265642000001,0,0x36,0x00,Write,ACK
8.355370848000000,0,0x36,0x13,Write,ACK
8.355400632000000,0,0x36,0x00,Write,ACK
8.355430424000000,0,0x36,0x5F,Write,ACK
8.355535317999999,0,0x36,0x35,Write,ACK
8.355565086000000,0,0x36,0x8C,Write,ACK
8.355594886000000,0,0x36,0x11,Write,ACK
8.358701696000001,0,0x36,0x35,Write,ACK
8.358763057999999,,0x33,,Write,NAK
8.358789718000001,0,0x33,0x46,Write,ACK
8.358819106000000,0,0x33,0x08,Write,NAK
8.358929196000000,0,0x36,0x18,Write,ACK
8.358958960000001,0,0x36,0x8D,Write,ACK
8.358988761999999,0,0x36,0x11,Write,ACK
8.359093853999999,0,0x36,0x46,Write,ACK
8.359123653999999,0,0x36,0x00,Write,ACK
8.359153444000000,0,0x36,0x32,Write,ACK
8.362258364000001,0,0x36,0x46,Write,ACK
8.362349743999999,0,0x36,0x00,Read,ACK
8.362379194000001,0,0x36,0x32,Read,NAK
8.362485875999999,0,0x36,0x45,Write,ACK
8.362515675999999,0,0x36,0x63,Write,ACK
8.362545448000001,0,0x36,0x04,Write,ACK
8.365650796000001,0,0x36,0x45,Write,ACK
8.365741930000000,0,0x36,0x63,Read,ACK
8.365771413999999,0,0x36,0x04,Read,NAK
8.365878181999999,0,0x36,0x23,Write,ACK
8.365907946000000,0,0x36,0x8C,Write,ACK
8.365937757999999,0,0x36,0x11,Write,ACK
8.369043214000000,0,0x36,0x23,Write,ACK
8.369134541999999,0,0x36,0x8C,Read,ACK
8.369164036000001,0,0x36,0x11,Read,NAK
8.369270808000000,0,0x36,0x2B,Write,ACK
8.369300605999999,0,0x36,0x70,Write,ACK
8.369330388000000,0,0x36,0x38,Write,ACK
8.369435056000000,0,0x36,0x3A,Write,ACK
8.369464834000000,0,0x36,0xE2,Write,ACK
8.369494624000000,0,0x36,0xA7,Write,ACK
8.369599738000000,0,0x36,0x12,Write,ACK
8.369629544000000,0,0x36,0x00,Write,ACK
8.369659322000000,0,0x36,0x28,Write,ACK
8.372764666000000,0,0x36,0x12,Write,ACK
8.372856027999999,0,0x36,0x00,Read,ACK
8.372885496000000,0,0x36,0x28,Read,NAK
8.372992266000001,0,0x36,0x22,Write,ACK
8.373022052000000,0,0x36,0x00,Write,ACK
8.373051834000000,0,0x36,0x16,Write,ACK
8.376156876000000,0,0x36,0x22,Write,ACK
8.376248126000000,0,0x36,0x00,Read,ACK
8.376277606000000,0,0x36,0x16,Read,NAK
8.376384057999999,0,0x36,0x32,Write,ACK
8.376413848000000,0,0x36,0x00,Write,ACK
8.376443635999999,0,0x36,0x0D,Write,ACK
8.379549084000001,0,0x36,0x32,Write,ACK
8.379640530000000,0,0x36,0x00,Read,ACK
8.379670018000001,0,0x36,0x0D,Read,NAK
8.379776983999999,0,0x36,0x42,Write,ACK
8.379806776000001,0,0x36,0x00,Write,ACK
8.379836548000000,0,0x36,0x0B,Write,ACK
8.382941598000000,0,0x36,0x42,Write,ACK
8.383032948000000,0,0x36,0x00,Read,ACK
8.383062431999999,0,0x36,0x0B,Read,NAK
8.383168872000001,0,0x36,0x38,Write,ACK
8.383198664000000,0,0x36,0x27,Write,ACK
8.383228460000000,0,0x36,0x00,Write,ACK
8.386333498000001,0,0x36,0x38,Write,ACK
8.386421638000000,0,0x36,0x13,Read,NAK
8.386451006000000,0,0x36,0x00,Read,ACK
8.386560780000000,0,0x36,0x39,Write,ACK
8.386590571999999,0,0x36,0x20,Write,ACK
8.386620356000000,0,0x36,0x15,Write,ACK
8.389725496000001,0,0x36,0x39,Write,ACK
8.389816866000000,0,0x36,0x20,Read,ACK
8.389846328000001,0,0x36,0x15,Read,NAK
8.389953080000000,0,0x36,0x1E,Write,ACK
8.389982856000000,0,0x36,0xC0,Write,ACK
8.390012676000000,0,0x36,0x08,Write,ACK
8.390117652000001,0,0x36,0x2C,Write,ACK
8.390147424000000,0,0x36,0xE1,Write,ACK
8.390177208000001,0,0x36,0xE3,Write,ACK
8.390282034000000,0,0x36,0x2D,Write,ACK
8.390311806000000,0,0x36,0x0E,Write,ACK
8.390341612000000,0,0x36,0x29,Write,ACK
8.390446495999999,0,0x36,0x24,Write,ACK
8.390476288000000,0,0x36,0x03,Write,ACK
8.390506078000000,0,0x36,0x14,Write,ACK
8.390610973999999,0,0x36,0x25,Write,ACK
8.390640756000000,0,0x36,0x05,Write,ACK
8.390670547999999,0,0x36,0x1E,Write,ACK
8.390775425999999,0,0x36,0x2E,Write,ACK
8.390805225999999,0,0x36,0x00,Write,ACK
8.390835018000001,0,0x36,0x04,Write,ACK
8.390939810000001,0,0x36,0x2F,Write,ACK
8.390969596000000,0,0x36,0x01,Write,ACK
8.390999396000000,0,0x36,0x00,Write,ACK
8.391104492000000,0,0x36,0x29,Write,ACK
8.391134256000001,0,0x36,0xA4,Write,ACK
8.391164040000000,0,0x36,0xCE,Write,ACK
8.391268938000000,0,0x36,0x60,Write,ACK
8.391298731999999,0,0x36,0x80,Write,ACK
8.391328526000001,0,0x36,0x00,Write,ACK
8.391433416000000,0,0x36,0x04,Write,ACK
8.391463214000000,0,0x36,0x00,Write,ACK
8.391493002000001,0,0x36,0x19,Write,ACK
8.391597770000001,0,0x36,0xB6,Write,ACK
8.391624031999999,0,0x36,0x2B,Write,ACK
8.391653834000000,0,0x36,0x09,Write,NAK
8.394762810000000,0,0x36,0xB6,Write,ACK
8.394853956000000,0,0x36,0x56,Read,ACK
8.394883428000000,0,0x36,0x13,Read,NAK
8.394990397999999,0,0x36,0xB7,Write,ACK
8.395020199999999,0,0x36,0x00,Write,ACK
8.395049990000000,0,0x36,0x06,Write,ACK
8.398155214000001,0,0x36,0xB7,Write,ACK
8.398246384000000,0,0x36,0x00,Read,ACK
8.398275862000000,0,0x36,0x06,Read,NAK
8.398382586000000,0,0x36,0xDB,Write,ACK
8.398412406000000,0,0x36,0x10,Write,ACK
8.398442188000001,0,0x36,0x00,Write,ACK
8.398547082000000,0,0x36,0x49,Write,ACK
8.398576866000001,0,0x36,0x40,Write,ACK
8.398606667999999,0,0x36,0x22,Write,ACK
8.398734678000000,0,0x36,0x60,Write,ACK
8.398764460000001,0,0x36,0x00,Write,ACK
8.398794252000000,0,0x36,0x00,Write,ACK
8.398898728000001,0,0x36,0xBB,Write,ACK
8.398989990000000,0,0x36,0x50,Read,ACK
8.399019466000000,0,0x36,0x00,Read,NAK
8.399126098000000,0,0x36,0xBB,Write,ACK
8.399155902000000,0,0x36,0x70,Write,ACK
8.399185684000001,0,0x36,0x00,Write,ACK
8.399290046000001,0,0x36,0xBB,Write,ACK
8.399381202000001,0,0x36,0x70,Read,ACK
8.399410686000000,0,0x36,0x00,Read,NAK
8.409517502000000,0,0x36,0xBB,Write,ACK
8.409608762000000,0,0x36,0x70,Read,ACK
8.409638240000000,0,0x36,0x00,Read,NAK
8.419744948000000,0,0x36,0xBB,Write,ACK
8.419836212000000,0,0x36,0x70,Read,ACK
8.419865688000000,0,0x36,0x00,Read,NAK
8.429972286000000,0,0x36,0xBB,Write,ACK
8.430063872000000,0,0x36,0x70,Read,ACK
8.430093328000000,0,0x36,0x00,Read,NAK
8.440200376000000,0,0x36,0xBB,Write,ACK
8.440291638000000,0,0x36,0x70,Read,ACK
8.440321120000000,0,0x36,0x00,Read,NAK
8.450427820000000,0,0x36,0xBB,Write,ACK
8.450519291999999,0,0x36,0x70,Read,ACK
8.450548768000001,0,0x36,0x00,Read,NAK
8.460655270000000,0,0x36,0xBB,Write,ACK
8.460716639999999,,0x33,,Write,NAK
8.460743323999999,0,0x33,0x38,Write,ACK
8.460772889999999,0,0x33,0x00,Write,ACK
8.470882727999999,0,0x36,0xBB,Write,ACK
8.470973881999999,0,0x36,0x70,Read,ACK
8.471003356000001,0,0x36,0x00,Read,NAK
8.481110274000001,0,0x36,0xBB,Write,ACK
8.481201534000000,0,0x36,0x70,Read,ACK
8.481231026000000,0,0x36,0x00,Read,NAK
8.491337734000000,0,0x36,0xBB,Write,ACK
8.491429106000000,0,0x36,0x70,Read,ACK
8.491458580000000,0,0x36,0x00,Read,NAK
8.501565698000000,0,0x36,0xBB,Write,ACK
8.501656968000001,0,0x36,0x70,Read,ACK
8.501686444000001,0,0x36,0x00,Read,NAK
8.511793153999999,0,0x36,0xBB,Write,ACK
8.511884424000000,0,0x36,0x70,Read,ACK
8.511913900000000,0,0x36,0x00,Read,NAK
8.522020500000000,0,0x36,0xBB,Write,ACK
8.522111782000000,0,0x36,0x70,Read,ACK
8.522141252000001,0,0x36,0x00,Read,NAK
8.532247736000000,0,0x36,0xBB,Write,ACK
8.532339115999999,0,0x36,0x70,Read,ACK
8.532368586000000,0,0x36,0x00,Read,NAK
8.542474978000000,0,0x36,0xBB,Write,ACK
8.542566352000000,0,0x36,0x70,Read,ACK
8.542595832000000,0,0x36,0x00,Read,ACK
8.552702510000000,0,0x36,0xBB,Write,ACK
8.552793694000000,0,0x36,0x70,Read,ACK
8.552823161999999,0,0x36,0x00,Read,NAK
8.562930096000001,0,0x36,0xBB,Write,ACK
8.563021254000001,0,0x36,0x70,Read,ACK
8.563050744000000,0,0x36,0x00,Read,NAK
8.573157441999999,0,0x36,0xBB,Write,ACK
8.573248703999999,0,0x36,0x70,Read,ACK
8.573278183999999,0,0x36,0x00,Read,NAK
8.583384887999999,0,0x36,0xBB,Write,ACK
8.583476060000001,0,0x36,0x70,Read,ACK
8.583505536000001,0,0x36,0x00,Read,NAK
8.593612120000000,0,0x36,0xBB,Write,ACK
8.593703500000000,0,0x36,0x70,Read,ACK
8.593732978000000,0,0x36,0x00,Read,ACK
8.603839794000001,0,0x36,0xBB,Write,ACK
8.603931582000000,0,0x36,0x70,Read,ACK
8.603961054000001,0,0x36,0x00,Read,NAK
8.614068496000000,0,0x36,0xBB,Write,ACK
8.614159760000000,0,0x36,0x70,Read,ACK
8.614189228000001,0,0x36,0x00,Read,NAK
8.624295844000001,0,0x36,0xBB,Write,ACK
8.624387212000000,0,0x36,0x70,Read,ACK
8.624416692000000,0,0x36,0x00,Read,NAK
8.634523390000000,0,0x36,0xBB,Write,ACK
8.634614784000000,0,0x36,0x70,Read,ACK
8.634644236000000,0,0x36,0x00,Read,NAK
8.644751266000000,0,0x36,0xBB,Write,ACK
8.644842627999999,0,0x36,0x70,Read,ACK
8.644872112000000,0,0x36,0x00,Read,NAK
8.654978584000000,0,0x36,0xBB,Write,ACK
8.655069862000000,0,0x36,0x70,Read,ACK
8.655099334000001,0,0x36,0x00,Read,NAK
8.665205744000000,0,0x36,0xBB,Write,ACK
8.665297012000000,0,0x36,0x70,Read,ACK
8.665326486000000,0,0x36,0x00,Read,NAK
8.675429769999999,0,0x3B,0x5D,Write,NAK
8.675524460000000,0,0x36,0x70,Read,ACK
8.675553936000000,0,0x36,0x00,Read,NAK
8.685660540000001,0,0x36,0xBB,Write,ACK
8.685751758000000,0,0x36,0x38,Read,ACK
8.685777964000000,0,0x36,0x00,Read,ACK
8.695888404000000,0,0x36,0xBB,Write,ACK
8.695979680000001,0,0x36,0x70,Read,ACK
8.696009152000000,0,0x36,0x00,Read,NAK
8.706115757999999,0,0x36,0xBB,Write,ACK
8.706207030000000,0,0x36,0x70,Read,ACK
8.706236488000000,0,0x36,0x00,Read,NAK
8.716343000000000,0,0x36,0xBB,Write,ACK
8.716434266000000,0,0x36,0x70,Read,ACK
8.716463738000000,0,0x36,0x00,Read,NAK
8.726570776000001,0,0x36,0xBB,Write,ACK
8.726662030000000,0,0x36,0x70,Read,ACK
8.726691506000000,0,0x36,0x00,Read,NAK
8.736798430000000,0,0x36,0xBB,Write,ACK
8.736889588000000,0,0x36,0x70,Read,ACK
8.736919060000000,0,0x36,0x00,Read,NAK
8.747026704000000,0,0x36,0xBB,Write,ACK
8.747118095999999,0,0x36,0x70,Read,ACK
8.747147554000000,0,0x36,0x00,Read,NAK
8.757254050000000,0,0x36,0xBB,Write,ACK
8.757345422000000,0,0x36,0x50,Read,ACK
8.757374896000000,0,0x36,0x00,Read,NAK
8.757480932000000,0,0x36,0x00,Write,ACK
8.757572388000000,0,0x36,0x02,Read,ACK
8.757601859999999,0,0x36,0x00,Read,NAK
8.757716950000001,0,0x36,0x00,Write,ACK
8.757808109999999,0,0x36,0x02,Read,ACK
8.757837582000001,0,0x36,0x00,Read,NAK
8.757944648000000,0,0x36,0x00,Write,ACK
8.757974446000000,0,0x36,0x00,Write,ACK
8.758004233999999,0,0x36,0x00,Write,ACK
8.761109788000001,0,0x36,0x00,Write,ACK
8.761201156000000,0,0x36,0x00,Read,ACK
8.761230634000000,0,0x36,0x00,Read,NAK
8.761337068000000,0,0x36,0x00,Write,ACK
8.761428329999999,0,0x36,0x00,Read,ACK
8.761457802000001,0,0x36,0x00,Read,NAK
8.761574120000001,0,0x36,0xB2,Write,ACK
8.761603923999999,0,0x36,0x01,Write,ACK
8.761633716000000,0,0x36,0x00,Write,ACK
8.761738508000001,0,0x36,0x06,Write,ACK
8.761829734000001,0,0x36,0x92,Read,ACK
8.761859244000000,0,0x36,0x61,Read,NAK
8.761973684000001,0,0x36,0xFB,Write,ACK
8.762065056000001,0,0x36,0x16,Read,ACK
8.762094504000000,0,0x36,0xD7,Read,NAK
8.762209314000000,0,0x36,0x09,Write,ACK
8.762300452000000,0,0x36,0x5C,Read,ACK
8.762329926000000,0,0x36,0xD6,Read,NAK
8.762443786000000,0,0x36,0x19,Write,ACK
8.762535120000001,0,0x36,0xBF,Read,ACK
8.762564604000000,0,0x36,0xD5,Read,NAK
8.762697416000000,0,0x36,0x2B,Write,ACK
8.762788565999999,0,0x36,0x70,Read,ACK
8.762818032000000,0,0x36,0x38,Read,NAK
8.762924690000000,0,0x36,0x2B,Write,ACK
8.762954482000000,0,0x36,0x70,Write,ACK
8.762984275999999,0,0x36,0x3C,Write,ACK
9.263063160000000,0,0x36,0x10,Write,ACK
9.263092944000000,0,0x36,0x8C,Write,ACK
9.263122742000000,0,0x36,0x11,Write,ACK
9.266228612000001,0,0x36,0x10,Write,ACK
9.266319746000001,0,0x36,0x8C,Read,ACK
9.266349226000001,0,0x36,0x11,Read,NAK
9.266456207999999,0,0x36,0x35,Write,ACK
9.266485980000001,0,0x36,0x8C,Write,ACK
9.266515783999999,0,0x36,0x11,Write,ACK
9.269621336000000,0,0x36,0x35,Write,ACK
9.269712680000000,0,0x36,0x8C,Read,ACK
9.269742168000001,0,0x36,0x11,Read,NAK
9.269849552000000,0,0x36,0x45,Write,ACK
9.269879348000000,0,0x36,0x63,Write,ACK
9.269909137999999,0,0x36,0x04,Write,ACK
9.273013971999999,0,0x36,0x45,Write,ACK
9.273105204000000,0,0x36,0x63,Read,ACK
9.273134688000001,0,0x36,0x04,Read,NAK
9.273241558000000,0,0x36,0x46,Write,ACK
9.273271343999999,0,0x36,0x00,Write,ACK
9.273301138000001,0,0x36,0x32,Write,ACK
9.276406486000001,0,0x36,0x46,Write,ACK
9.276497726000001,0,0x36,0x00,Read,ACK
9.276527207999999,0,0x36,0x32,Read,NAK
9.776607050000001,0,0x36,0x06,Write,ACK
9.776698297999999,0,0x36,0x27,Read,ACK
9.776727758000000,0,0x36,0x70,Read,ACK
9.776843471999999,0,0x36,0xFB,Write,ACK
9.776934753999999,0,0x36,0x61,Read,ACK
9.776964196000000,0,0x36,0xD6,Read,NAK
9.777088564000000,0,0x36,0x00,Write,ACK
9.777179904000000,0,0x36,0x80,Read,ACK
9.777209398000000,0,0x36,0x00,Read,NAK
9.777327092000000,0,0x36,0x05,Write,ACK
9.777418334000000,0,0x36,0xDF,Read,ACK
9.777447826000000,0,0x36,0x10,Read,NAK
9.777555941999999,0,0x36,0x06,Write,ACK
9.777647392000000,0,0x36,0x27,Read,ACK
9.777676875999999,0,0x36,0x60,Read,NAK
9.777784468000000,0,0x36,0x09,Write,ACK
9.777875721999999,0,0x36,0x6A,Read,ACK
9.777905188000000,0,0x36,0xD6,Read,NAK
9.778009772000001,0,0x36,0x05,Write,ACK
9.778104325999999,0,0x36,0xF6,Read,ACK
9.778133810000000,0,0x36,0xFF,Read,NAK
9.778241630000000,0,0x36,0x0B,Write,ACK
9.778333070000000,0,0x36,0xFD,Read,ACK
9.778362553999999,0,0x36,0xFF,Read,NAK
9.778470170000000,0,0x36,0x07,Write,NAK
9.778561401999999,0,0x36,0xE1,Read,ACK
9.778590886000000,0,0x36,0x10,Read,NAK
9.778698260000001,0,0x36,0x10,Write,ACK
9.778789617999999,0,0x36,0x65,Read,ACK
9.778819108000000,0,0x36,0x11,Read,NAK
9.778926382000000,0,0x36,0x18,Write,ACK
9.778985236000000,,0x36,,Write,NAK
9.779011905999999,0,0x36,0x46,Write,NAK
9.779041292000000,0,0x36,0x08,Write,NAK
9.779211882000000,0,0x36,0x35,Write,ACK
9.779303130000001,0,0x36,0x8C,Read,ACK
9.779332606000001,0,0x36,0x11,Read,NAK
9.779440512000001,0,0x36,0x3E,Write,ACK
9.779531776000001,0,0x36,0x0B,Read,ACK
9.779561252000001,0,0x36,0x00,Read,NAK
9.779669161999999,0,0x36,0x48,Write,ACK
9.779760405999999,0,0x36,0x0F,Read,ACK
9.779789883999999,0,0x36,0x60,Read,NAK
9.779897478000001,0,0x36,0x4A,Write,ACK
9.779988818000000,0,0x36,0xFA,Read,ACK
9.780018313999999,0,0x36,0x10,Read,NAK
9.780125800000000,0,0x36,0x4C,Write,ACK
9.780217154000001,0,0x36,0x00,Read,ACK
9.780246622000000,0,0x36,0x00,Read,NAK
9.780354325999999,0,0x36,0x4D,Write,ACK
9.780445682000000,0,0x36,0x00,Read,ACK
9.780475151999999,0,0x36,0x00,Read,NAK
9.780583139999999,0,0x36,0xB3,Write,ACK
9.780674390000000,0,0x36,0xD3,Read,ACK
9.780703890000000,0,0x36,0x2C,Read,NAK
9.780811468000000,0,0x36,0xFF,Write,ACK
9.780902731999999,0,0x36,0x0F,Read,ACK
9.780932214000000,0,0x36,0x60,Read,NAK
9.781053450000000,0,0x36,0x18,Write,ACK
9.781083234000000,0,0x36,0x8F,Write,ACK
9.781113032000000,0,0x36,0x11,Write,ACK
9.781226652000001,0,0x36,0xFB,Write,ACK
9.781317710000000,0,0x36,0x61,Read,ACK
9.781347170000000,0,0x36,0xD6,Read,NAK
9.781461234000000,0,0x36,0x09,Write,ACK
9.781552580000000,0,0x36,0x6A,Read,ACK
9.781582056000000,0,0x36,0xD6,Read,NAK
9.781715794000000,0,0x69,0xB7,Write,ACK
9.781807056000000,0,0x69,0x04,Read,NAK
9.781920983999999,0,0x69,0xB7,Write,ACK
9.781950792000000,0,0x69,0x04,Write,ACK
9.787057064000001,0,0x69,0xB7,Write,ACK
9.787148847999999,0,0x69,0x04,Read,NAK
9.787263196000000,0,0x69,0xB7,Write,ACK
9.787354870000000,0,0x69,0x04,Read,NAK
9.787468708000000,0,0x69,0xB7,Write,ACK
9.787498510000001,0,0x69,0x05,Write,ACK
9.792604982000000,0,0x69,0xB7,Write,ACK
9.792696356000000,0,0x69,0x05,Read,NAK
9.792823196000001,0,0x69,0xB7,Write,ACK
9.792914436000000,0,0x69,0x05,Read,NAK
9.793028500000000,0,0x69,0xB7,Write,ACK
9.793058308000001,0,0x69,0x05,Write,ACK
9.798164352000001,0,0x69,0xB7,Write,ACK
9.798255718000000,0,0x69,0x05,Read,NAK
9.798369852000000,0,0x69,0xB7,Write,ACK
9.798461238000000,0,0x69,0x05,Read,NAK
9.798575066000000,0,0x69,0xB7,Write,ACK
9.798604857999999,0,0x69,0x05,Write,ACK
9.803711132000000,0,0x69,0xB7,Write,ACK
9.803796051999999,0,0x69,0x05,Read,NAK
9.804118944000001,0,0x25,0x0D,Write,ACK
9.804210405999999,0,0x25,0x47,Read,NAK
9.804376112000000,0,0x25,0x02,Write,ACK
9.804467472000001,0,0x25,0x00,Read,NAK
9.804574534000000,0,0x25,0x06,Write,ACK
9.804665787999999,0,0x25,0x27,Read,NAK
9.804772966000000,0,0x25,0x0D,Write,ACK
9.804864018000000,0,0x25,0x47,Read,NAK
9.804983679999999,0,0x25,0x01,Write,ACK
9.805074932000000,0,0x25,0x65,Read,NAK
9.805181892000000,0,0x25,0x08,Write,ACK
9.805273128000000,0,0x25,0x81,Read,NAK
9.805438240000001,0,0x36,0x09,Write,ACK
9.805529498000000,0,0x36,0x64,Read,ACK
9.805558956000000,0,0x36,0xD6,Read,NAK
9.805717804000000,0,0x36,0x06,Write,ACK
9.805809158000001,0,0x36,0x27,Read,ACK
9.805838641999999,0,0x36,0x60,Read,NAK
9.867081263999999,0,0x25,0x06,Write,ACK
9.867173030000000,0,0x25,0x27,Read,NAK
9.867280520000000,0,0x25,0x0D,Write,ACK
9.867371876000000,0,0x25,0x47,Read,NAK
9.867526745999999,0,0x25,0x08,Write,ACK
9.867618095999999,0,0x25,0x81,Read,NAK
9.867748194000001,0,0x25,0x02,Write,ACK
9.867839562000000,0,0x25,0x00,Read,NAK
9.867946637999999,0,0x25,0x06,Write,ACK
9.868037978000000,0,0x25,0x27,Read,NAK
9.868144952000000,0,0x25,0x0D,Write,ACK
9.868236200000000,0,0x25,0x47,Read,NAK
9.868356084000000,0,0x25,0x01,Write,ACK
9.868447328000000,0,0x25,0x65,Read,NAK
9.868554208000001,0,0x25,0x08,Write,ACK
9.868645638000000,0,0x25,0x81,Read,NAK
9.868762726000000,0,0x25,0x08,Write,ACK
9.868854076000000,0,0x25,0x81,Read,NAK
9.868960943999999,0,0x25,0x06,Write,ACK
9.869052298000000,0,0x25,0x27,Read,NAK
9.869159162000001,0,0x25,0x0D,Write,ACK
9.869250621999999,0,0x25,0x47,Read,NAK
9.869707578000000,0,0x36,0x09,Write,ACK
9.869799038000000,0,0x36,0x64,Read,ACK
9.869828482000001,0,0x36,0xD6,Read,NAK
9.870151606000000,0,0x25,0x02,Write,ACK
9.870242876000001,0,0x25,0x00,Read,NAK
9.870350871999999,0,0x25,0x06,Write,ACK
9.870435664000000,0,0x25,0x27,Read,NAK
9.870543359999999,0,0x25,0x0D,Write,ACK
9.870635232000000,0,0x25,0x47,Read,NAK
9.870755644000001,0,0x25,0x01,Write,ACK
9.870846888000001,0,0x25,0x65,Read,NAK
9.870953960000000,0,0x25,0x08,Write,ACK
9.871045204000000,0,0x25,0x81,Read,NAK
9.871162802000001,0,0x25,0x08,Write,ACK
9.871253938000001,0,0x25,0x81,Read,NAK
9.871361333999999,0,0x25,0x06,Write,ACK
9.871452692000000,0,0x25,0x27,Read,NAK
9.871559652000000,0,0x25,0x0D,Write,ACK
9.871651118000001,0,0x25,0x47,Read,NAK
9.871823908000000,0,0x25,0x02,Write,ACK
9.871915380000001,0,0x25,0x00,Read,NAK
9.872022339999999,0,0x25,0x06,Write,ACK
9.872113902000001,0,0x25,0x27,Read,NAK
9.872220768000000,0,0x25,0x0D,Write,ACK
9.872312129999999,0,0x25,0x47,Read,NAK
9.872431693999999,0,0x25,0x01,Write,ACK
9.872522944000000,0,0x25,0x65,Read,NAK
9.872629908000000,0,0x25,0x08,Write,ACK
9.872721036000000,0,0x25,0x81,Read,NAK
9.872885825999999,0,0x36,0x09,Write,ACK
9.872977190000000,0,0x36,0x64,Read,ACK
9.873006646000000,0,0x36,0xD6,Read,NAK
9.873236726000000,0,0x69,0xB7,Write,ACK
9.873328108000001,0,0x69,0x05,Read,NAK
9.873442766000000,0,0x69,0xB7,Write,ACK
9.873472573999999,0,0x69,0x05,Write,ACK
9.878579040000000,0,0x69,0xB7,Write,ACK
9.878670184000001,0,0x69,0x05,Read,NAK
9.878784546000000,0,0x69,0xB7,Write,ACK
9.878875710000001,0,0x69,0x05,Read,NAK
9.878989534000000,0,0x69,0xB7,Write,ACK
9.879019348000000,0,0x69,0x05,Write,ACK
9.884126330000001,0,0x69,0xB7,Write,ACK
9.884217612000000,0,0x69,0x05,Read,NAK
9.898409923999999,0,0x25,0x02,Write,ACK
9.898501496000000,0,0x25,0x00,Read,NAK
9.898608879999999,0,0x25,0x06,Write,ACK
9.898700340000000,0,0x25,0x27,Read,NAK
9.898807718000000,0,0x25,0x0D,Write,ACK
9.898899080000000,0,0x25,0x47,Read,NAK
9.899020000000000,0,0x25,0x01,Write,ACK
9.899111150000000,0,0x25,0x65,Read,NAK
9.899218211999999,0,0x25,0x08,Write,ACK
9.899306358000000,0,0x25,0x40,Read,NAK
9.899442366000001,0,0x25,0x08,Write,ACK
9.899533608000000,0,0x25,0x81,Read,NAK
9.899641008000000,0,0x25,0x06,Write,ACK
9.899732265999999,0,0x25,0x27,Read,NAK
9.899839018000000,0,0x25,0x0D,Write,ACK
9.899930376000000,0,0x25,0x47,Read,NAK
9.900109832000000,0,0x36,0x09,Write,ACK
9.900201184000000,0,0x36,0x64,Read,ACK
9.900230644000001,0,0x36,0xD6,Read,NAK
9.900367426000001,0,0x25,0x02,Write,ACK
9.900458784000000,0,0x25,0x00,Read,NAK
9.900565856000000,0,0x25,0x06,Write,ACK
9.900657094000000,0,0x25,0x27,Read,NAK
9.900764294000000,0,0x25,0x0D,Write,ACK
9.900855522000001,0,0x25,0x47,Read,NAK
9.900975517999999,0,0x25,0x01,Write,ACK
9.901066867999999,0,0x25,0x65,Read,NAK
9.901173952000001,0,0x25,0x08,Write,ACK
9.901265287999999,0,0x25,0x81,Read,NAK
9.901410496000000,0,0x36,0x06,Write,ACK
9.901501752000000,0,0x36,0x27,Read,ACK
9.901531221999999,0,0x36,0x60,Read,NAK
9.904674568000001,0,0x69,0xB9,Write,ACK
9.904766046000001,0,0x69,0x4A,Read,NAK
9.904874036000001,0,0x69,0xB9,Write,ACK
9.904903837999999,0,0x69,0x4A,Write,ACK
9.905009337999999,0,0x69,0xB9,Write,ACK
9.905100726000001,0,0x69,0x4A,Read,NAK
9.905228616000000,0,0x25,0x02,Write,ACK
9.905319968000001,0,0x25,0x00,Read,NAK
9.905426942000000,0,0x25,0x06,Write,ACK
9.905518292000000,0,0x25,0x27,Read,NAK
9.905621926000000,0,0x12,0x06,Read,NAK
9.905716396000001,0,0x25,0x47,Read,NAK
9.905836391999999,0,0x25,0x01,Write,ACK
9.905927648000000,0,0x25,0x65,Read,NAK
9.906034922000000,0,0x25,0x08,Write,ACK
9.906126148000000,0,0x25,0x81,Read,NAK
9.906243350000000,0,0x25,0x08,Write,ACK
9.906334685999999,0,0x25,0x81,Read,NAK
9.906441778000000,0,0x25,0x06,Write,ACK
9.906533030000000,0,0x25,0x27,Read,NAK
9.906639994000001,0,0x25,0x0D,Write,ACK
9.906731252000000,0,0x25,0x47,Read,NAK
12.945681435999999,0,0x57,0x00,Write,ACK
12.945779554000000,0,0x57,0x18,Read,NAK
12.945889751999999,0,0x57,0x28,Write,ACK
12.945985382000000,0,0x57,0x02,Read,NAK
12.946094852000000,0,0x57,0x28,Write,ACK
12.946124645999999,0,0x57,0x01,Write,ACK
12.946232858000000,0,0x57,0x22,Write,ACK
12.946328382000001,0,0x57,0x33,Read,NAK
12.946437019999999,0,0x57,0x25,Write,ACK
12.946532639999999,0,0x57,0x02,Read,NAK
12.946641070000000,0,0x57,0x25,Write,ACK
12.946670850000000,0,0x57,0xC2,Write,ACK
12.946778666000000,0,0x57,0x22,Write,ACK
12.946874404000001,0,0x57,0x33,Read,NAK
12.946982726000000,0,0x57,0x22,Write,ACK
12.947078232000001,0,0x57,0x33,Read,NAK
12.947186660000000,0,0x57,0x22,Write,ACK
12.947216462000000,0,0x57,0x73,Write,ACK
12.947324271999999,0,0x57,0x21,Write,ACK
12.947420178000000,0,0x57,0x9E,Read,NAK
12.947528724000000,0,0x57,0x21,Write,ACK
12.947558528000000,0,0x57,0x1E,Write,ACK
12.947666332000001,0,0x57,0x24,Write,ACK
12.947696102000000,0,0x57,0xEE,Write,ACK
12.947804138000000,0,0x57,0x30,Write,ACK
12.947833920000001,0,0x57,0x5B,Write,ACK
12.947940376000000,0,0x57,0x3F,Write,ACK
12.947970167999999,0,0x57,0x10,Write,ACK
12.948080054000000,0,0x57,0x30,Write,ACK
12.948109854000000,0,0x57,0x00,Write,ACK
12.948218177999999,0,0x57,0x31,Write,ACK
12.948313698000000,0,0x57,0x78,Read,NAK
12.948428586000000,0,0x57,0x21,Write,ACK
12.948524310000000,0,0x57,0x1E,Read,NAK
12.948632622000000,0,0x57,0x21,Write,ACK
12.948662424000000,0,0x57,0x1B,Write,ACK
12.948775328000000,0,0x57,0x20,Write,ACK
12.948870850000000,0,0x57,0x3C,Read,NAK
12.948981784000001,0,0x57,0x27,Write,ACK
12.949011556000000,0,0x57,0x8B,Write,ACK
12.949887446000000,0,0x66,0x00,Write,ACK
12.949984024000001,0,0x66,0x15,Read,NAK
12.950093376000000,0,0x66,0x01,Write,ACK
12.950189002000000,0,0x66,0x02,Read,NAK
12.950450944000000,0,0x69,0xB7,Write,ACK
12.950548358000001,0,0x69,0x05,Read,NAK
12.950658142000000,0,0x25,0x10,Write,ACK
12.950687918000000,0,0x25,0xFF,Write,ACK
12.950796154000001,0,0x25,0x0F,Write,ACK
12.950825937999999,0,0x25,0xFF,Write,ACK
12.950933956000000,0,0x25,0x0E,Write,ACK
12.950963736000000,0,0x25,0xFF,Write,ACK
12.951071561999999,0,0x25,0x11,Write,ACK
12.951101338000001,0,0x25,0xFF,Write,ACK
12.951209356000000,0,0x25,0x01,Write,ACK
12.951304876000000,0,0x25,0x65,Read,NAK
12.951413091999999,0,0x25,0x09,Write,ACK
12.951508634000000,0,0x25,0x18,Read,NAK
12.951746204000001,0,0x66,0x26,Write,ACK
12.951775994000000,0,0x66,0xFF,Write,ACK
12.951884831999999,0,0x69,0xB1,Write,ACK
12.951914622000000,0,0x69,0xFF,Write,ACK
12.952022550000001,0,0x25,0x0E,Write,ACK
12.952052328000001,0,0x25,0xFF,Write,ACK
12.952160146000001,0,0x25,0x0F,Write,ACK
12.952189920000000,0,0x25,0xFF,Write,ACK
12.952297528000001,0,0x25,0x10,Write,ACK
12.952327312000000,0,0x25,0xFF,Write,ACK
12.952435130000000,0,0x25,0x11,Write,ACK
12.952464905999999,0,0x25,0xFF,Write,ACK
12.952573354000000,0,0x66,0x26,Write,ACK
12.952603128000000,0,0x66,0xFF,Write,ACK
12.952711052000000,0,0x69,0xB1,Write,ACK
12.952740834000000,0,0x69,0xFF,Write,ACK
12.952848749999999,0,0x25,0x0E,Write,ACK
12.952878530000000,0,0x25,0xFF,Write,ACK
12.952986360000001,0,0x25,0x0F,Write,ACK
12.953016132000000,0,0x25,0xFF,Write,ACK
12.953123732000000,0,0x25,0x10,Write,ACK
12.953153525999999,0,0x25,0xFF,Write,ACK
12.953261341999999,0,0x25,0x11,Write,ACK
12.953291124000000,0,0x25,0xFF,Write,ACK
12.953399342000001,0,0x66,0x26,Write,ACK
12.953429121999999,0,0x66,0xFF,Write,ACK
12.953537440000000,0,0x69,0xB1,Write,ACK
12.953567240000000,0,0x69,0xFF,Write,ACK
12.953675076000000,0,0x25,0x0E,Write,ACK
12.953704840000000,0,0x25,0xFF,Write,ACK
12.953813181999999,0,0x25,0x0F,Write,ACK
12.953842950000000,0,0x25,0xFF,Write,ACK
12.953950772000001,0,0x25,0x10,Write,ACK
12.953980548000001,0,0x25,0xFF,Write,ACK
12.954088268000000,0,0x25,0x11,Write,ACK
12.954118036000001,0,0x25,0xFF,Write,ACK
12.954226168000000,0,0x66,0x26,Write,ACK
12.954255952000000,0,0x66,0xFF,Write,ACK
12.954377089999999,0,0x69,0xB1,Write,ACK
12.954406885999999,0,0x69,0xFF,Write,ACK
12.954514608000000,0,0x25,0x0E,Write,ACK
12.954544362000000,0,0x25,0xFF,Write,ACK
12.954652083999999,0,0x25,0x0F,Write,ACK
12.954681868000000,0,0x25,0xFF,Write,ACK
12.954790215999999,0,0x25,0x10,Write,ACK
12.954819982000000,0,0x25,0xFF,Write,ACK
12.954927786000001,0,0x25,0x11,Write,ACK
12.954957574000000,0,0x25,0xFF,Write,ACK
12.955065294000001,0,0x66,0x26,Write,ACK
12.955095074000001,0,0x66,0xFF,Write,ACK
12.955202884000000,0,0x69,0xB1,Write,ACK
12.955232668000001,0,0x69,0xFF,Write,ACK
12.955340806000001,0,0x25,0x0E,Write,ACK
12.955370574000000,0,0x25,0xFF,Write,ACK
12.955478282000000,0,0x25,0x0F,Write,ACK
12.955508068000000,0,0x25,0xFF,Write,ACK
12.955615984000000,0,0x25,0x10,Write,ACK
12.955645781999999,0,0x25,0xFF,Write,ACK
12.955753486000001,0,0x25,0x11,Write,ACK
12.955783280000000,0,0x25,0xFF,Write,ACK
12.955895140000001,0,0x66,0x26,Write,ACK
12.955924921999999,0,0x66,0xFF,Write,ACK
12.956035546000001,0,0x69,0xB1,Write,ACK
12.956065340000000,0,0x69,0xFF,Write,ACK
12.956173359999999,0,0x25,0x0E,Write,ACK
12.956203142000000,0,0x25,0xFF,Write,ACK
12.956311063999999,0,0x25,0x0F,Write,ACK
12.956340836000001,0,0x25,0xFF,Write,ACK
12.956448763999999,0,0x25,0x10,Write,ACK
12.956478541999999,0,0x25,0xFF,Write,ACK
12.956588551999999,0,0x25,0x11,Write,ACK
12.956618320000000,0,0x25,0xFF,Write,ACK
12.956726765999999,0,0x66,0x26,Write,ACK
12.956756536000000,0,0x66,0xFF,Write,ACK
12.956864341999999,0,0x69,0xB1,Write,ACK
12.956894148000000,0,0x69,0xFF,Write,ACK
12.957002065999999,0,0x25,0x0E,Write,ACK
12.957031854000000,0,0x25,0xFF,Write,ACK
12.957139875999999,0,0x25,0x0F,Write,ACK
12.957169646000001,0,0x25,0xFF,Write,ACK
12.957277478000000,0,0x25,0x10,Write,ACK
12.957307244000001,0,0x25,0xFF,Write,ACK
12.957415060000001,0,0x25,0x11,Write,ACK
12.957444841999999,0,0x25,0xFF,Write,ACK
12.957552972000000,0,0x66,0x26,Write,ACK
12.957582748000000,0,0x66,0xFF,Write,ACK
12.957690555999999,0,0x69,0xB1,Write,ACK
12.957720342000000,0,0x69,0xFF,Write,ACK
12.957828274000001,0,0x25,0x0E,Write,ACK
12.957858040000000,0,0x25,0xFF,Write,ACK
12.957965868000000,0,0x25,0x0F,Write,ACK
12.957995642000000,0,0x25,0xFF,Write,ACK
12.958103466000001,0,0x25,0x10,Write,ACK
12.958133238000000,0,0x25,0xFF,Write,ACK
12.958241162000000,0,0x25,0x11,Write,ACK
12.958270940000000,0,0x25,0xFF,Write,ACK
12.958378764000001,0,0x66,0x26,Write,ACK
12.958408536000000,0,0x66,0xFF,Write,ACK
12.958516346000000,0,0x69,0xB1,Write,ACK
12.958546132000000,0,0x69,0xFF,Write,ACK
12.958653750000000,0,0x25,0x0E,Write,ACK
12.958683528000000,0,0x25,0xFF,Write,ACK
12.958791344000000,0,0x25,0x0F,Write,ACK
12.958821113999999,0,0x25,0xFF,Write,ACK
12.958928942000000,0,0x25,0x10,Write,ACK
12.958958711999999,0,0x25,0xFF,Write,ACK
12.959066540000000,0,0x25,0x11,Write,ACK
12.959096320000000,0,0x25,0xFF,Write,ACK
12.959201108000000,0,0x67,0x13,Write,ACK
12.959230595999999,0,0x67,0x7F,Write,NAK
12.959342017999999,0,0x69,0xB1,Write,ACK
12.959371816000001,0,0x69,0xFF,Write,ACK
12.959479524000001,0,0x25,0x0E,Write,ACK
12.959509302000001,0,0x25,0xFF,Write,ACK
12.959617028000000,0,0x25,0x0F,Write,ACK
12.959646804000000,0,0x25,0xFF,Write,ACK
12.959754416000001,0,0x25,0x10,Write,ACK
12.959784184000000,0,0x25,0xFF,Write,ACK
12.959893151999999,0,0x25,0x11,Write,ACK
12.959922932000000,0,0x25,0xFF,Write,ACK
12.960031574000000,0,0x66,0x26,Write,ACK
12.960061364000000,0,0x66,0xFF,Write,ACK
12.960169691999999,0,0x69,0xB1,Write,ACK
12.960199468000001,0,0x69,0xFF,Write,ACK
12.960307608000001,0,0x25,0x0E,Write,ACK
12.960337389999999,0,0x25,0xFF,Write,ACK
12.960445416000001,0,0x25,0x0F,Write,ACK
12.960475194000001,0,0x25,0xFF,Write,ACK
12.960583114000000,0,0x25,0x10,Write,ACK
12.960612888000000,0,0x25,0xFF,Write,ACK
12.960720924000000,0,0x25,0x04,Write,ACK
12.960743506000000,0,0x25,0xBF,Write,NAK
12.960859050000000,0,0x66,0x26,Write,ACK
12.960888810000000,0,0x66,0xFF,Write,ACK
12.960997010000000,0,0x69,0xB1,Write,ACK
12.961026832000000,0,0x69,0xFF,Write,ACK
12.961134961999999,0,0x25,0x0E,Write,ACK
12.961164744000000,0,0x25,0xFF,Write,ACK
12.961272866000000,0,0x25,0x0F,Write,ACK
12.961302650000000,0,0x25,0xFF,Write,ACK
12.961410662000000,0,0x25,0x10,Write,ACK
12.961440447999999,0,0x25,0xFF,Write,ACK
12.961548584000001,0,0x25,0x11,Write,ACK
12.961578363999999,0,0x25,0xFF,Write,ACK
12.961686694000001,0,0x66,0x26,Write,ACK
12.961716480000000,0,0x66,0xFF,Write,ACK
12.961824615999999,0,0x69,0xB1,Write,ACK
12.961854388000001,0,0x69,0xFF,Write,ACK
12.961962400000001,0,0x25,0x0E,Write,ACK
12.961992186000000,0,0x25,0xFF,Write,ACK
12.962100317999999,0,0x25,0x0F,Write,ACK
12.962130108000000,0,0x25,0xFF,Write,ACK
12.962238328000000,0,0x25,0x10,Write,ACK
12.962268112000000,0,0x25,0xFF,Write,ACK
12.962376128000001,0,0x25,0x11,Write,ACK
12.962405928000001,0,0x25,0xFF,Write,ACK
12.962514160000000,0,0x66,0x26,Write,ACK
12.962543928000001,0,0x66,0xFF,Write,ACK
12.962652056000000,0,0x69,0xB1,Write,ACK
12.962681838000000,0,0x69,0xFF,Write,ACK
12.962789976000000,0,0x25,0x0E,Write,ACK
12.962819742000001,0,0x25,0xFF,Write,ACK
12.962927776000001,0,0x25,0x0F,Write,ACK
12.962957554000001,0,0x25,0xFF,Write,ACK
12.963065481999999,0,0x25,0x10,Write,ACK
12.963095250000000,0,0x25,0xFF,Write,ACK
12.963203384000000,0,0x25,0x11,Write,ACK
12.963233153999999,0,0x25,0xFF,Write,ACK
12.963341500000000,0,0x66,0x26,Write,ACK
12.963371278000000,0,0x66,0xFF,Write,ACK
12.963479189999999,0,0x69,0xB1,Write,ACK
12.963508987999999,0,0x69,0xFF,Write,ACK
12.963617122000000,0,0x25,0x0E,Write,ACK
12.963646885999999,0,0x25,0xFF,Write,ACK
12.963754915999999,0,0x25,0x0F,Write,ACK
12.963784702000000,0,0x25,0xFF,Write,ACK
12.963892510000001,0,0x25,0x10,Write,ACK
12.963922287999999,0,0x25,0xFF,Write,ACK
12.964119055999999,0,0x25,0x11,Write,ACK
12.964148840000000,0,0x25,0xFF,Write,ACK
12.964255526000001,0,0x66,0x26,Write,ACK
12.964285292000000,0,0x66,0xFF,Write,ACK
12.964392574000000,0,0x69,0xB1,Write,ACK
12.964422362000001,0,0x69,0xFF,Write,ACK
12.964529669999999,0,0x25,0x0E,Write,ACK
12.964559456000000,0,0x25,0xFF,Write,ACK
12.964664969999999,0,0x25,0x0F,Write,ACK
12.964694758000000,0,0x25,0xFF,Write,ACK
12.964805588000001,0,0x25,0x10,Write,ACK
12.964835362000001,0,0x25,0xFF,Write,ACK
12.964943912000001,0,0x25,0x11,Write,ACK
12.964973691999999,0,0x25,0xFF,Write,ACK
12.965082142000000,0,0x66,0x26,Write,ACK
12.965111909999999,0,0x66,0xFF,Write,ACK
12.965220240000001,0,0x69,0xB1,Write,ACK
12.965250028000000,0,0x69,0xFF,Write,ACK
12.965358373999999,0,0x25,0x0E,Write,ACK
12.965388142000000,0,0x25,0xFF,Write,ACK
12.965496286000000,0,0x25,0x0F,Write,ACK
12.965526060000000,0,0x25,0xFF,Write,ACK
12.965634086000000,0,0x25,0x10,Write,ACK
12.965663854000001,0,0x25,0xFF,Write,ACK
12.965771997999999,0,0x25,0x11,Write,ACK
12.965801770000001,0,0x25,0xFF,Write,ACK
12.965910116000000,0,0x66,0x26,Write,ACK
12.965939904000001,0,0x66,0xFF,Write,ACK
12.966048003999999,0,0x69,0xB1,Write,ACK
12.966077798000001,0,0x69,0xFF,Write,ACK
12.966185934000000,0,0x25,0x0E,Write,ACK
12.966215714000001,0,0x25,0xFF,Write,ACK
12.966323837999999,0,0x25,0x0F,Write,ACK
12.966353615999999,0,0x25,0xFF,Write,ACK
12.966461638000000,0,0x25,0x10,Write,ACK
12.966491424000001,0,0x25,0xFF,Write,ACK
12.966599348000001,0,0x25,0x11,Write,ACK
12.966629126000001,0,0x25,0xFF,Write,ACK
12.966737454000000,0,0x66,0x26,Write,ACK
12.966767242000000,0,0x66,0xFF,Write,ACK
12.966875258000000,0,0x69,0xB1,Write,ACK
12.966905046000001,0,0x69,0xFF,Write,ACK
12.967013064000000,0,0x25,0x0E,Write,ACK
12.967042842000000,0,0x25,0xFF,Write,NAK
12.967151707999999,0,0x25,0x0F,Write,ACK
12.967181494000000,0,0x25,0xFF,Write,ACK
12.967289716000000,0,0x25,0x18,Write,ACK
12.967315996000000,0,0x25,0x7F,Write,NAK
12.967427636000000,0,0x25,0x11,Write,ACK
12.967457410000000,0,0x25,0xFF,Write,ACK
12.967565840000001,0,0x66,0x26,Write,ACK
12.967595632000000,0,0x66,0xFF,Write,ACK
12.967703746000000,0,0x69,0xD8,Write,NAK
12.967730024000000,0,0x69,0x7F,Write,NAK
12.967843028000001,0,0x25,0x0E,Write,ACK
12.967872804000001,0,0x25,0xFF,Write,ACK
12.967981355999999,0,0x25,0x0F,Write,ACK
12.968011124000000,0,0x25,0xFF,Write,ACK
12.968117901999999,0,0x25,0x10,Write,ACK
12.968147682000000,0,0x25,0xFF,Write,ACK
12.968257998000000,0,0x25,0x11,Write,ACK
12.968287778000001,0,0x25,0xFF,Write,ACK
12.968396744000000,0,0x66,0x26,Write,ACK
12.968426515999999,0,0x66,0xFF,Write,ACK
12.968534743999999,0,0x69,0xB1,Write,ACK
12.968564528000000,0,0x69,0xFF,Write,ACK
12.968672562000000,0,0x25,0x0E,Write,ACK
12.968702338000000,0,0x25,0xFF,Write,ACK
12.968810560000000,0,0x25,0x0F,Write,ACK
12.968840340000000,0,0x25,0xFF,Write,ACK
12.968948382000001,0,0x25,0x10,Write,ACK
12.968978156000000,0,0x25,0xFF,Write,ACK
12.969086286000000,0,0x25,0x11,Write,ACK
12.969116066000000,0,0x25,0xFF,Write,NAK
12.969224609999999,0,0x66,0x26,Write,ACK
12.969254396000000,0,0x66,0xFF,Write,ACK
12.969362522000001,0,0x69,0xB1,Write,ACK
12.969392298000001,0,0x69,0xFF,Write,ACK
12.969500333999999,0,0x25,0x0E,Write,ACK
12.969530116000000,0,0x25,0xFF,Write,ACK
12.969638035999999,0,0x25,0x0F,Write,ACK
12.969667800000000,0,0x25,0xFF,Write,ACK
12.969775938000000,0,0x25,0x10,Write,ACK
12.969805720000000,0,0x25,0xFF,Write,ACK
12.969913847999999,0,0x25,0x11,Write,ACK
12.969943630000000,0,0x25,0xFF,Write,ACK
12.970051968000000,0,0x66,0x26,Write,ACK
12.970081748000000,0,0x66,0xFF,Write,ACK
12.970189654000000,0,0x69,0xB1,Write,ACK
12.970219456000001,0,0x69,0xFF,Write,ACK
12.970327570000000,0,0x25,0x0E,Write,ACK
12.970357352000001,0,0x25,0xFF,Write,ACK
12.970465472000001,0,0x25,0x0F,Write,ACK
12.970495264000000,0,0x25,0xFF,Write,ACK
12.970603288000000,0,0x25,0x10,Write,ACK
12.970633060000001,0,0x25,0xFF,Write,ACK
12.970741114000001,0,0x25,0x11,Write,ACK
12.970770871999999,0,0x25,0xFF,Write,ACK
12.970879318000000,0,0x66,0x26,Write,ACK
12.970909098000000,0,0x66,0xFF,Write,ACK
12.971017212000000,0,0x69,0xB1,Write,ACK
12.971047009999999,0,0x69,0xFF,Write,ACK
12.971155130000000,0,0x25,0x0E,Write,ACK
12.971184910000000,0,0x25,0xFF,Write,ACK
12.971293149999999,0,0x25,0x0F,Write,ACK
12.971322918000000,0,0x25,0xFF,Write,ACK
12.971431042000001,0,0x25,0x10,Write,ACK
12.971460830000000,0,0x25,0xFF,Write,ACK
12.971568961999999,0,0x25,0x11,Write,ACK
12.971598741999999,0,0x25,0xFF,Write,ACK
12.971706980000000,0,0x66,0x26,Write,ACK
12.971736754000000,0,0x66,0xFF,Write,ACK
12.971859550000000,0,0x69,0xB1,Write,ACK
12.971889347999999,0,0x69,0xFF,Write,ACK
12.971997474000000,0,0x25,0x0E,Write,ACK
12.972027256000001,0,0x25,0xFF,Write,ACK
12.972135597999999,0,0x25,0x0F,Write,ACK
12.972165370000001,0,0x25,0xFF,Write,ACK
12.972273402000001,0,0x25,0x10,Write,ACK
12.972303178000001,0,0x25,0xFF,Write,ACK
12.972411100000000,0,0x25,0x11,Write,ACK
12.972440882000001,0,0x25,0xFF,Write,ACK
12.972549438000000,0,0x66,0x26,Write,ACK
12.972579209999999,0,0x66,0xFF,Write,ACK
12.972687538000001,0,0x69,0xB1,Write,ACK
12.972717321999999,0,0x69,0xFF,Write,ACK
12.972825362000000,0,0x25,0x0E,Write,ACK
12.972855129999999,0,0x25,0xFF,Write,ACK
12.972963357999999,0,0x25,0x0F,Write,ACK
12.972993150000001,0,0x25,0xFF,Write,ACK
12.973101280000000,0,0x25,0x10,Write,ACK
12.973131056000000,0,0x25,0xFF,Write,ACK
12.973239184000001,0,0x25,0x11,Write,ACK
12.973268952000000,0,0x25,0xFF,Write,ACK
12.973377299999999,0,0x66,0x26,Write,ACK
12.973407077999999,0,0x66,0xFF,Write,ACK
12.973515092000000,0,0x69,0xB1,Write,ACK
12.973544887999999,0,0x69,0xFF,Write,ACK
12.973652912000000,0,0x25,0x0E,Write,ACK
12.973682688000000,0,0x25,0xFF,Write,ACK
12.973790812000001,0,0x25,0x0F,Write,ACK
12.973820591999999,0,0x25,0xFF,Write,ACK
12.973928731999999,0,0x25,0x10,Write,ACK
12.973958506000001,0,0x25,0xFF,Write,ACK
12.974066536000000,0,0x25,0x11,Write,ACK
12.974096316000001,0,0x25,0xFF,Write,ACK
12.974204562000001,0,0x66,0x26,Write,ACK
12.974234330000000,0,0x66,0xFF,Write,ACK
12.974342346000000,0,0x69,0xB1,Write,ACK
12.974372128000001,0,0x69,0xFF,Write,ACK
12.974480266000000,0,0x25,0x0E,Write,ACK
12.974510046000001,0,0x25,0xFF,Write,ACK
12.974617867999999,0,0x25,0x0F,Write,ACK
12.974647634000000,0,0x25,0xFF,Write,ACK
12.974755851999999,0,0x25,0x10,Write,ACK
12.974785647999999,0,0x25,0xFF,Write,ACK
12.974893681999999,0,0x25,0x11,Write,ACK
12.974923452000001,0,0x25,0xFF,Write,ACK
12.975031994000000,0,0x66,0x26,Write,ACK
12.975061780000001,0,0x66,0xFF,Write,ACK
12.975169790000001,0,0x69,0xB1,Write,ACK
12.975199593999999,0,0x69,0xFF,Write,ACK
12.975307608000000,0,0x25,0x0E,Write,ACK
12.975337379999999,0,0x25,0xFF,Write,ACK
12.975445519999999,0,0x25,0x0F,Write,ACK
12.975475297999999,0,0x25,0xFF,Write,ACK
12.975583218000001,0,0x25,0x10,Write,ACK
12.975612994000000,0,0x25,0xFF,Write,ACK
12.975721030000001,0,0x25,0x11,Write,ACK
12.975750800000000,0,0x25,0xFF,Write,ACK
12.975859656000001,0,0x66,0x26,Write,ACK
12.975885957999999,0,0x66,0x7F,Write,NAK
12.975997654000000,0,0x69,0xB1,Write,ACK
12.976027459999999,0,0x69,0xFF,Write,ACK
12.976135582000000,0,0x25,0x0E,Write,ACK
12.976165364000000,0,0x25,0xFF,Write,ACK
12.976273386000001,0,0x25,0x0F,Write,ACK
12.976303158000000,0,0x25,0xFF,Write,ACK
12.976411305999999,0,0x25,0x10,Write,ACK
12.976441083999999,0,0x25,0xFF,Write,ACK
12.976549214000000,0,0x25,0x11,Write,ACK
12.976578986000000,0,0x25,0xFF,Write,ACK
12.976687124000000,0,0x66,0x26,Write,ACK
12.976716902000000,0,0x66,0xFF,Write,ACK
12.976824907999999,0,0x69,0xB1,Write,ACK
12.976854707999999,0,0x69,0xFF,Write,ACK
12.976962717999999,0,0x25,0x0E,Write,ACK
12.976992502000000,0,0x25,0xFF,Write,ACK
12.977100424000000,0,0x25,0x0F,Write,ACK
12.977130216000001,0,0x25,0xFF,Write,ACK
12.977238234000000,0,0x25,0x10,Write,ACK
12.977268007999999,0,0x25,0xFF,Write,ACK
12.977376142000001,0,0x25,0x11,Write,ACK
12.977405920000001,0,0x25,0xFF,Write,ACK
12.977514048000000,0,0x66,0x26,Write,ACK
12.977543826000000,0,0x66,0xFF,Write,ACK
12.977652460000000,0,0x69,0xB1,Write,ACK
12.977682258000000,0,0x69,0xFF,Write,ACK
12.977790494000001,0,0x25,0x0E,Write,ACK
12.977820275999999,0,0x25,0xFF,Write,ACK
12.977928398000000,0,0x25,0x0F,Write,ACK
12.977958180000000,0,0x25,0xFF,Write,ACK
12.978066112000000,0,0x25,0x10,Write,ACK
12.978095897999999,0,0x25,0xFF,Write,ACK
12.978204123999999,0,0x25,0x11,Write,ACK
12.978233888000000,0,0x25,0xFF,Write,ACK
12.978342337999999,0,0x66,0x26,Write,ACK
12.978372126000000,0,0x66,0xFF,Write,ACK
12.978480016000001,0,0x69,0xB1,Write,ACK
12.978509814000001,0,0x69,0xFF,Write,ACK
12.978617844000000,0,0x25,0x0E,Write,ACK
12.978647622000000,0,0x25,0xFF,Write,ACK
12.978755745999999,0,0x25,0x0F,Write,ACK
12.978785534000000,0,0x25,0xFF,Write,ACK
12.978893555999999,0,0x25,0x10,Write,ACK
12.978923342000000,0,0x25,0xFF,Write,ACK
12.979031572000000,0,0x25,0x11,Write,ACK
12.979061337999999,0,0x25,0xFF,Write,ACK
12.979169682000000,0,0x66,0x26,Write,ACK
12.979199464000001,0,0x66,0xFF,Write,ACK
12.979307693999999,0,0x69,0xB1,Write,ACK
12.979337480000000,0,0x69,0xFF,Write,ACK
12.979445505999999,0,0x25,0x0E,Write,ACK
12.979475280000001,0,0x25,0xFF,Write,ACK
12.979583308000000,0,0x25,0x0F,Write,ACK
12.979613082000000,0,0x25,0xFF,Write,ACK
12.979720907999999,0,0x25,0x10,Write,ACK
12.979750680000000,0,0x25,0xFF,Write,ACK
12.979860880000000,0,0x25,0x11,Write,ACK
12.979890665999999,0,0x25,0xFF,Write,ACK
12.980000678000000,0,0x66,0x26,Write,ACK
12.980030462000000,0,0x66,0xFF,Write,ACK
12.980138780000001,0,0x69,0xB1,Write,ACK
12.980168570000000,0,0x69,0xFF,Write,ACK
12.980276698000001,0,0x25,0x0E,Write,ACK
12.980306486000000,0,0x25,0xFF,Write,ACK
12.980414831999999,0,0x25,0x0F,Write,ACK
12.980444598000000,0,0x25,0xFF,Write,ACK
12.980552628000000,0,0x25,0x10,Write,ACK
12.980582406000000,0,0x25,0xFF,Write,ACK
12.980690528000000,0,0x25,0x11,Write,ACK
12.980720308000000,0,0x25,0xFF,Write,ACK
12.980828654000000,0,0x66,0x26,Write,ACK
12.980858436000000,0,0x66,0xFF,Write,ACK
12.980966444000000,0,0x69,0xB1,Write,ACK
12.980996232000001,0,0x69,0xFF,Write,ACK
12.981104375999999,0,0x25,0x0E,Write,ACK
12.981134142000000,0,0x25,0xFF,Write,ACK
12.981242388000000,0,0x25,0x0F,Write,ACK
12.981272148000000,0,0x25,0xFF,Write,ACK
12.981380390000000,0,0x25,0x10,Write,ACK
12.981410164000000,0,0x25,0xFF,Write,ACK
12.981518412000000,0,0x25,0x11,Write,ACK
12.981548194000000,0,0x25,0xFF,Write,ACK
12.981656407999999,0,0x66,0x26,Write,ACK
12.981686198000000,0,0x66,0xFF,Write,ACK
12.981794530000000,0,0x69,0xB1,Write,ACK
12.981824322000000,0,0x69,0xFF,Write,ACK
12.981932446000000,0,0x25,0x0E,Write,ACK
12.981962215999999,0,0x25,0xFF,Write,ACK
12.982070250000000,0,0x25,0x0F,Write,ACK
12.982100025999999,0,0x25,0xFF,Write,ACK
12.982208158000001,0,0x25,0x10,Write,ACK
12.982237930000000,0,0x25,0xFF,Write,ACK
12.982346068000000,0,0x25,0x11,Write,ACK
12.982375846000000,0,0x25,0xFF,Write,ACK
12.982484186000001,0,0x66,0x26,Write,ACK
12.982513966000001,0,0x66,0xFF,Write,ACK
12.982621968000000,0,0x69,0xB1,Write,ACK
12.982651776000001,0,0x69,0xFF,Write,ACK
12.982759694000000,0,0x25,0x0E,Write,ACK
12.982789478000001,0,0x25,0xFF,Write,ACK
12.982897496000000,0,0x25,0x0F,Write,ACK
12.982927280000000,0,0x25,0xFF,Write,ACK
12.983035510000001,0,0x25,0x10,Write,ACK
12.983065282000000,0,0x25,0xFF,Write,ACK
12.983173318000000,0,0x25,0x11,Write,ACK
12.983203094000000,0,0x25,0xFF,Write,ACK
12.983311434000001,0,0x66,0x26,Write,ACK
12.983341213999999,0,0x66,0xFF,Write,ACK
12.983449322000000,0,0x69,0xB1,Write,ACK
12.983479114000000,0,0x69,0xFF,Write,ACK
12.983587249999999,0,0x25,0x0E,Write,ACK
12.983617022000001,0,0x25,0xFF,Write,ACK
12.983725164000001,0,0x25,0x0F,Write,ACK
12.983754941999999,0,0x25,0xFF,Write,ACK
12.983861508000000,0,0x25,0x10,Write,ACK
12.983891286000000,0,0x25,0xFF,Write,ACK
12.984000668000000,0,0x25,0x11,Write,ACK
12.984030432000001,0,0x25,0xFF,Write,ACK
12.984138884000000,0,0x66,0x26,Write,ACK
12.984168656000000,0,0x66,0xFF,Write,ACK
12.984276780000000,0,0x69,0xB1,Write,ACK
12.984306571999999,0,0x69,0xFF,Write,ACK
12.984411384000000,0,0x22,0x07,Read,ACK
12.984440859999999,0,0x22,0x7F,Read,NAK
12.984552298000001,0,0x25,0x07,Write,NAK
12.984578570000000,0,0x25,0x7F,Write,NAK
12.984690316000000,0,0x25,0x10,Write,ACK
12.984720088000000,0,0x25,0xFF,Write,ACK
12.984828020000000,0,0x25,0x11,Write,ACK
12.984857790000000,0,0x25,0xFF,Write,ACK
12.984966138000001,0,0x66,0x26,Write,ACK
12.984995910000000,0,0x66,0xFF,Write,ACK
12.985103918000000,0,0x69,0xB1,Write,ACK
12.985133716000000,0,0x69,0xFF,Write,ACK
12.985241958000000,0,0x25,0x0E,Write,ACK
12.985271720000000,0,0x25,0xFF,Write,ACK
12.985379758000001,0,0x25,0x0F,Write,ACK
12.985409538000001,0,0x25,0xFF,Write,ACK
12.985517248000001,0,0x25,0x10,Write,ACK
12.985547038000000,0,0x25,0xFF,Write,ACK
12.985655052000000,0,0x25,0x11,Write,ACK
12.985685033999999,0,0x25,0xFF,Write,ACK
12.985793277999999,0,0x66,0x26,Write,ACK
12.985823048000000,0,0x66,0xFF,Write,ACK
12.985931172000001,0,0x69,0xB1,Write,ACK
12.985960966000000,0,0x69,0xFF,Write,ACK
12.986069298000000,0,0x25,0x0E,Write,ACK
12.986099060000001,0,0x25,0xFF,Write,ACK
12.986207309999999,0,0x25,0x0F,Write,ACK
12.986237084000001,0,0x25,0xFF,Write,ACK
12.986345230000000,0,0x25,0x10,Write,ACK
12.986374996000000,0,0x25,0xFF,Write,ACK
12.986483132000000,0,0x25,0x11,Write,ACK
12.986512908000000,0,0x25,0xFF,Write,ACK
12.986621039999999,0,0x66,0x26,Write,ACK
12.986650812000001,0,0x66,0xFF,Write,ACK
12.986758836000000,0,0x69,0xB1,Write,ACK
12.986788630000000,0,0x69,0xFF,Write,ACK
12.986896661999999,0,0x25,0x0E,Write,ACK
12.986926424000000,0,0x25,0xFF,Write,ACK
12.987034458000000,0,0x25,0x0F,Write,ACK
12.987064223999999,0,0x25,0xFF,Write,ACK
12.987172158000000,0,0x25,0x10,Write,ACK
12.987201942000000,0,0x25,0xFF,Write,ACK
12.987310173999999,0,0x25,0x11,Write,ACK
12.987339951999999,0,0x25,0xFF,Write,ACK
12.987448066000001,0,0x66,0x23,Write,ACK
12.987544006000000,0,0x66,0xFF,Read,NAK
12.987652538000001,0,0x66,0x23,Write,ACK
12.987682336000001,0,0x66,0xFF,Write,ACK
12.988032302000001,0,0x66,0x23,Write,ACK
12.988129494000001,0,0x66,0xFF,Read,NAK
12.988239185999999,0,0x66,0x23,Write,ACK
12.988268958000001,0,0x66,0xFE,Write,ACK
12.988778632000001,0,0x25,0x00,Write,ACK
12.988876024000000,0,0x25,0x1A,Read,NAK
12.988985705999999,0,0x25,0x09,Write,ACK
12.989081742000000,0,0x25,0x18,Read,NAK
12.989190482000000,0,0x25,0x01,Write,ACK
12.989286414000000,0,0x25,0x65,Read,NAK
12.989401195999999,0,0x66,0x26,Write,ACK
12.989430978000000,0,0x66,0xFF,Write,ACK
12.989539199999999,0,0x69,0xB1,Write,ACK
12.989568992000001,0,0x69,0xFF,Write,ACK
12.989677318000000,0,0x25,0x0E,Write,ACK
12.989707116000000,0,0x25,0x7F,Write,ACK
12.989815018000000,0,0x25,0x0F,Write,ACK
12.989844796000000,0,0x25,0xFF,Write,ACK
12.989952830000000,0,0x25,0x10,Write,ACK
12.989982614000001,0,0x25,0xFF,Write,ACK
12.990090636000000,0,0x25,0x11,Write,ACK
12.990120418000000,0,0x25,0xFF,Write,ACK
12.990233032000001,0,0x66,0x26,Write,ACK
12.990262800000000,0,0x66,0xFF,Write,ACK
12.990371026000000,0,0x69,0xB1,Write,ACK
12.990400824000000,0,0x69,0xFF,Write,ACK
12.990508844000001,0,0x25,0x0E,Write,ACK
12.990538644000001,0,0x25,0x3F,Write,ACK
12.990646652000001,0,0x25,0x0F,Write,ACK
12.990676422000000,0,0x25,0xFF,Write,ACK
12.990784454000000,0,0x25,0x10,Write,ACK
12.990814230000000,0,0x25,0xFF,Write,ACK
12.990922361999999,0,0x25,0x11,Write,ACK
12.990952144000000,0,0x25,0xFF,Write,ACK
12.991065374000000,0,0x66,0x26,Write,ACK
12.991095164000001,0,0x66,0xFF,Write,ACK
12.991203064000000,0,0x69,0xB1,Write,ACK
12.991232849999999,0,0x69,0xFF,Write,ACK
12.991341194000000,0,0x25,0x0E,Write,ACK
12.991370976000001,0,0x25,0x3F,Write,ACK
12.991478998000000,0,0x25,0x0F,Write,ACK
12.991508774000000,0,0x25,0xFF,Write,ACK
12.991616810000000,0,0x25,0x10,Write,ACK
12.991646582000000,0,0x25,0xFF,Write,ACK
12.991754514000000,0,0x25,0x11,Write,ACK
12.991784281999999,0,0x25,0xFE,Write,ACK
12.991896890000000,0,0x66,0x26,Write,ACK
12.991926668000000,0,0x66,0xFF,Write,ACK
12.992035310000000,0,0x69,0xB1,Write,ACK
12.992065090000001,0,0x69,0xFF,Write,ACK
12.992173233999999,0,0x25,0x0E,Write,ACK
12.992203018000000,0,0x25,0x3F,Write,ACK
12.992311140000000,0,0x25,0x0F,Write,ACK
12.992340926000001,0,0x25,0xFF,Write,ACK
12.992448926000000,0,0x25,0x10,Write,ACK
12.992478724000000,0,0x25,0xFF,Write,ACK
12.992586749999999,0,0x25,0x11,Write,ACK
12.992616518000000,0,0x25,0xFC,Write,ACK
12.992728928000000,0,0x66,0x26,Write,ACK
12.992758702000000,0,0x66,0xFF,Write,ACK
12.992866930000000,0,0x69,0xB1,Write,ACK
12.992896724000000,0,0x69,0xFF,Write,NAK
12.993004744000000,0,0x25,0x0E,Write,ACK
12.993034556000000,0,0x25,0x3F,Write,ACK
12.993142541999999,0,0x25,0x0F,Write,ACK
12.993172321999999,0,0x25,0xFF,Write,ACK
12.993280250000000,0,0x25,0x10,Write,ACK
12.993310036000000,0,0x25,0xFF,Write,ACK
12.993418062000000,0,0x25,0x11,Write,ACK
12.993447824000000,0,0x25,0xF8,Write,ACK
12.993558428000000,0,0x66,0x26,Write,ACK
12.993588244000000,0,0x66,0xFF,Write,ACK
12.993696242000000,0,0x69,0xB1,Write,ACK
12.993726046000001,0,0x69,0xFF,Write,ACK
12.993834176000000,0,0x25,0x0E,Write,ACK
12.993863967999999,0,0x25,0x3F,Write,ACK
12.993971874000000,0,0x25,0x0F,Write,ACK
12.993998178000000,0,0x25,0x7F,Write,NAK
12.994109895999999,0,0x25,0x10,Write,ACK
12.994139669999999,0,0x25,0xFF,Write,ACK
12.994247787999999,0,0x25,0x11,Write,ACK
12.994277578000000,0,0x25,0xF0,Write,ACK
12.994390084000001,0,0x66,0x26,Write,ACK
12.994419868000000,0,0x66,0xFF,Write,ACK
12.994527872000001,0,0x69,0xB1,Write,ACK
12.994557668000001,0,0x69,0xFF,Write,ACK
12.994665597999999,0,0x25,0x0E,Write,ACK
12.994695382000000,0,0x25,0x3F,Write,ACK
12.994803486000000,0,0x25,0x0F,Write,ACK
12.994833276000000,0,0x25,0xFF,Write,ACK
12.994941091999999,0,0x25,0x10,Write,ACK
12.994970872000000,0,0x25,0xFB,Write,ACK
12.995079010000000,0,0x25,0x11,Write,ACK
12.995108785999999,0,0x25,0xF0,Write,ACK
12.995219737999999,0,0x66,0x26,Write,ACK
12.995249513999999,0,0x66,0xFF,Write,ACK
12.995357622000000,0,0x69,0xB1,Write,ACK
12.995387411999999,0,0x69,0xFF,Write,ACK
12.995495546000001,0,0x25,0x0E,Write,ACK
12.995525342000001,0,0x25,0x3F,Write,ACK
12.995633251999999,0,0x25,0x0F,Write,ACK
12.995663026000001,0,0x25,0xFF,Write,ACK
12.995771154000000,0,0x25,0x10,Write,ACK
12.995800938000000,0,0x25,0xF3,Write,ACK
12.995909384000001,0,0x25,0x11,Write,ACK
12.995939165999999,0,0x25,0xF0,Write,ACK
12.996050192000000,0,0x66,0x26,Write,ACK
12.996079974000001,0,0x66,0xFF,Write,ACK
12.996187994000000,0,0x69,0xB1,Write,ACK
12.996217780000000,0,0x69,0xFF,Write,ACK
12.996325912000000,0,0x25,0x0E,Write,ACK
12.996355705999999,0,0x25,0x3F,Write,ACK
12.996463715999999,0,0x25,0x0F,Write,ACK
12.996493493999999,0,0x25,0xFF,Write,ACK
12.996601633999999,0,0x25,0x10,Write,ACK
12.996631408000001,0,0x25,0xE3,Write,ACK
12.996739642000000,0,0x25,0x11,Write,ACK
12.996769426000000,0,0x25,0xF0,Write,ACK
12.996883486000000,0,0x66,0x26,Write,ACK
12.996913272000000,0,0x66,0xFF,Write,ACK
12.997021486000000,0,0x69,0xB1,Write,ACK
12.997051280000001,0,0x69,0xFF,Write,ACK
12.997159306000000,0,0x25,0x0E,Write,ACK
12.997189100000000,0,0x25,0x3F,Write,ACK
12.997297004000000,0,0x25,0x0F,Write,ACK
12.997326788000001,0,0x25,0xFF,Write,ACK
12.997434913999999,0,0x25,0x10,Write,ACK
12.997464696000000,0,0x25,0xE3,Write,ACK
12.997569594000000,0,0x25,0x08,Write,NAK
12.997599082000001,0,0x25,0x78,Write,ACK
12.997816042000000,0,0x25,0x02,Write,ACK
12.997912400000001,0,0x25,0x00,Read,NAK
12.998027068000001,0,0x66,0x26,Write,ACK
12.998056846000001,0,0x66,0xFF,Write,ACK
12.998165168000000,0,0x69,0xB1,Write,ACK
12.998194961999999,0,0x69,0xFF,Write,ACK
12.998303204000001,0,0x25,0x0E,Write,ACK
12.998332998000000,0,0x25,0x3E,Write,ACK
12.998441101999999,0,0x25,0x0F,Write,ACK
12.998470888000000,0,0x25,0xFF,Write,ACK
12.998581108000000,0,0x25,0x10,Write,ACK
12.998610877999999,0,0x25,0xE3,Write,ACK
12.998719114000000,0,0x25,0x11,Write,ACK
12.998748902000001,0,0x25,0xF0,Write,ACK
12.998861816000000,0,0x66,0x26,Write,ACK
12.998891578000000,0,0x66,0xFF,Write,ACK
12.998999816000000,0,0x69,0xB1,Write,ACK
12.999029606000001,0,0x69,0xFF,Write,ACK
12.999137832000001,0,0x25,0x0E,Write,ACK
12.999167637999999,0,0x25,0x3C,Write,ACK
12.999275952000000,0,0x25,0x0F,Write,ACK
12.999305736000000,0,0x25,0xFF,Write,ACK
12.999413668000001,0,0x25,0x10,Write,ACK
12.999443438000000,0,0x25,0xE3,Write,ACK
12.999551464000000,0,0x25,0x11,Write,ACK
12.999581234000001,0,0x25,0xF0,Write,ACK
12.999692599999999,0,0x66,0x26,Write,ACK
12.999722375999999,0,0x66,0xFF,Write,ACK
12.999830610000000,0,0x69,0xB1,Write,ACK
12.999860397999999,0,0x69,0xFF,Write,ACK
12.999969675999999,0,0x25,0x0E,Write,ACK
12.999999464000000,0,0x25,0x34,Write,ACK
13.000107792000000,0,0x25,0x0F,Write,ACK
13.000137576000000,0,0x25,0xFF,Write,ACK
13.000245688000000,0,0x25,0x10,Write,ACK
13.000275478000001,0,0x25,0xE3,Write,ACK
13.000383716000000,0,0x25,0x11,Write,ACK
13.000413490000000,0,0x25,0xF0,Write,ACK
13.000525472000000,0,0x66,0x26,Write,ACK
13.000555262000001,0,0x66,0xFF,Write,ACK
13.000663672000000,0,0x69,0xB1,Write,ACK
13.000693466000000,0,0x69,0xFF,Write,ACK
13.000801601999999,0,0x25,0x0E,Write,ACK
13.000831390000000,0,0x25,0x24,Write,ACK
13.000936380000001,0,0x25,0x07,Write,NAK
13.000965866000000,0,0x25,0x7F,Write,NAK
13.001077526000000,0,0x25,0x10,Write,ACK
13.001107306000000,0,0x25,0xE3,Write,ACK
13.001215134000001,0,0x25,0x11,Write,ACK
13.001244897999999,0,0x25,0xF0,Write,ACK
13.001356253999999,0,0x66,0x26,Write,ACK
13.001386031999999,0,0x66,0xFF,Write,ACK
13.001494365999999,0,0x69,0xB1,Write,ACK
13.001524162000001,0,0x69,0xFF,Write,ACK
13.001629368000000,0,0x32,0x07,Read,ACK
13.001658856000001,0,0x32,0x02,Read,ACK
13.001770620000000,0,0x25,0x0F,Write,ACK
13.001800398000000,0,0x25,0xFF,Write,ACK
13.001908424000000,0,0x25,0x10,Write,ACK
13.001938186000000,0,0x25,0xE3,Write,ACK
13.002046227999999,0,0x25,0x11,Write,ACK
13.002076002000001,0,0x25,0xF0,Write,ACK
13.002191218000000,0,0x25,0x06,Write,ACK
13.002287151999999,0,0x25,0x27,Read,NAK
13.002651502000001,0,0x25,0x06,Write,ACK
13.002748252000000,0,0x25,0x27,Read,ACK
13.002777743999999,0,0x25,0x05,Read,ACK
13.002807208000000,0,0x25,0x81,Read,ACK
13.002836670000001,0,0x25,0x18,Read,ACK
13.002866180000000,0,0x25,0x51,Read,NAK
13.002987208000000,0,0x25,0x0A,Write,ACK
13.003083456000001,0,0x25,0x51,Read,NAK
13.003235653999999,0,0x25,0x21,Write,ACK
13.003265426000000,0,0x25,0x06,Write,ACK
13.003295222000000,0,0x25,0x09,Write,ACK
13.003403748000000,0,0x25,0x41,Write,ACK
13.003433537999999,0,0x25,0x00,Write,ACK
13.003643736000001,0,0x66,0x26,Write,ACK
13.003673514000001,0,0x66,0xFF,Write,ACK
13.003781732000000,0,0x69,0xB1,Write,ACK
13.003811519999999,0,0x69,0xFF,Write,ACK
13.003968814000000,0,0x25,0x0E,Write,ACK
13.003998612000000,0,0x25,0x04,Write,ACK
13.004113397999999,0,0x25,0x0F,Write,ACK
13.004143190000001,0,0x25,0x7F,Write,ACK
13.004256401999999,0,0x25,0x10,Write,ACK
13.004286196000001,0,0x25,0xE3,Write,ACK
13.004399122000001,0,0x25,0x11,Write,ACK
13.004428890000000,0,0x25,0xF0,Write,ACK
13.004559120000000,0,0x66,0x26,Write,ACK
13.004588886000001,0,0x66,0xFF,Write,ACK
13.004703345999999,0,0x69,0xB1,Write,ACK
13.004733141999999,0,0x69,0xFF,Write,ACK
13.004846274000000,0,0x25,0x0E,Write,ACK
13.004876068000000,0,0x25,0x04,Write,ACK
13.004988976000000,0,0x25,0x0F,Write,ACK
13.005018767999999,0,0x25,0x3F,Write,ACK
13.005131678000000,0,0x25,0x10,Write,ACK
13.005161448000001,0,0x25,0xE3,Write,ACK
13.005274161999999,0,0x25,0x11,Write,ACK
13.005303946000000,0,0x25,0xF0,Write,ACK
13.005437184000000,0,0x66,0x26,Write,ACK
13.005466960000000,0,0x66,0xFF,Write,ACK
13.005581211999999,0,0x69,0xB1,Write,ACK
13.005611004000000,0,0x69,0xFF,Write,ACK
13.005724252000000,0,0x25,0x0E,Write,ACK
13.005754054000001,0,0x25,0x04,Write,ACK
13.005866948000000,0,0x25,0x0F,Write,ACK
13.005896741999999,0,0x25,0x2F,Write,ACK
13.006009755999999,0,0x25,0x10,Write,ACK
13.006039532000001,0,0x25,0xE3,Write,ACK
13.006152658000000,0,0x25,0x11,Write,ACK
13.006182438000000,0,0x25,0xF0,Write,ACK
13.006311395999999,0,0x66,0x26,Write,ACK
13.006341178000000,0,0x66,0xFF,Write,ACK
13.006455546000000,0,0x69,0xB1,Write,ACK
13.006485339999999,0,0x69,0xFF,Write,ACK
13.006598364000000,0,0x25,0x0E,Write,ACK
13.006628153999999,0,0x25,0x04,Write,ACK
13.006741165999999,0,0x25,0x0F,Write,ACK
13.006770956000000,0,0x25,0x27,Write,ACK
13.006883458000001,0,0x25,0x10,Write,ACK
13.006913234000001,0,0x25,0xE3,Write,ACK
13.007025944000000,0,0x25,0x11,Write,ACK
13.007055718000000,0,0x25,0xF0,Write,ACK
13.007188746000001,0,0x66,0x26,Write,ACK
13.007218520000000,0,0x66,0xFF,Write,ACK
13.007333094000000,0,0x69,0xB1,Write,ACK
13.007362900000000,0,0x69,0xFF,Write,ACK
13.007476338000000,0,0x25,0x0E,Write,ACK
13.007506129999999,0,0x25,0x04,Write,ACK
13.007619138000001,0,0x25,0x0F,Write,ACK
13.007648938000001,0,0x25,0x23,Write,ACK
13.007761417999999,0,0x25,0x10,Write,ACK
13.007791198000000,0,0x25,0xE3,Write,ACK
13.007905890000000,0,0x25,0x11,Write,ACK
13.007935686000000,0,0x25,0xF0,Write,ACK
13.008061714000000,0,0x66,0x26,Write,ACK
13.008091500000001,0,0x66,0xFF,Write,ACK
13.008203677999999,0,0x69,0xB1,Write,ACK
13.008233468000000,0,0x69,0xFF,Write,ACK
13.008344623999999,0,0x25,0x0E,Write,ACK
13.008374414000000,0,0x25,0x04,Write,ACK
13.008485439999999,0,0x25,0x0F,Write,ACK
13.008515237999999,0,0x25,0x21,Write,ACK
13.008626280000000,0,0x25,0x10,Write,ACK
13.008656051999999,0,0x25,0xE3,Write,ACK
13.008766996000000,0,0x25,0x11,Write,ACK
13.008796761999999,0,0x25,0xF0,Write,ACK
13.008928334000000,0,0x66,0x26,Write,ACK
13.008958116000001,0,0x66,0xFF,Write,ACK
13.009085400000000,0,0x69,0xB1,Write,ACK
13.009115194000000,0,0x69,0xFF,Write,ACK
13.009223636000000,0,0x22,0x07,Read,ACK
13.009253120000000,0,0x22,0x02,Read,ACK
13.009367782000000,0,0x25,0x0F,Write,ACK
13.009397580000000,0,0x25,0x20,Write,ACK
13.009508368000001,0,0x25,0x08,Write,ACK
13.009534668000001,0,0x25,0x71,Write,NAK
13.009649332000000,0,0x25,0x11,Write,ACK
13.009679126000000,0,0x25,0xF0,Write,ACK
13.009799954000000,0,0x32,0x05,Read,ACK
13.009902364000000,0,0x25,0x51,Read,NAK
13.010025144000000,0,0x25,0x08,Write,ACK
13.010124206000000,0,0x25,0x81,Read,NAK
13.010278676000000,0,0x25,0x0B,Write,ACK
13.010378478000000,0,0x25,0x08,Read,NAK
13.010792090000001,0,0x66,0x26,Write,ACK
13.010821869999999,0,0x66,0xFF,Write,NAK
13.010934049999999,0,0x69,0xB1,Write,ACK
13.010963834000000,0,0x69,0xFF,Write,ACK
13.011075310000001,0,0x25,0x0E,Write,ACK
13.011105096000000,0,0x25,0x04,Write,ACK
13.011216336000000,0,0x25,0x0F,Write,ACK
13.011246123999999,0,0x25,0x20,Write,ACK
13.011357265999999,0,0x25,0x10,Write,ACK
13.011387048000000,0,0x25,0x63,Write,ACK
13.011498092000000,0,0x25,0x11,Write,ACK
13.011527870000000,0,0x25,0xF0,Write,ACK
13.011653810000000,0,0x66,0x26,Write,ACK
13.011683584000000,0,0x66,0xFF,Write,ACK
13.011795566000000,0,0x69,0xB1,Write,ACK
13.011825348000000,0,0x69,0xFF,Write,ACK
13.011940770000001,0,0x25,0x0E,Write,ACK
13.011970573999999,0,0x25,0x04,Write,ACK
13.012100459999999,0,0x25,0x0F,Write,ACK
13.012130239999999,0,0x25,0x20,Write,ACK
13.012250450000000,0,0x25,0x10,Write,ACK
13.012280240000001,0,0x25,0x23,Write,ACK
13.012397529999999,0,0x25,0x11,Write,ACK
13.012427307999999,0,0x25,0xF0,Write,ACK
13.012560519999999,0,0x66,0x26,Write,ACK
13.012590319999999,0,0x66,0xFF,Write,ACK
13.012707702000000,0,0x69,0xB1,Write,ACK
13.012737498000000,0,0x69,0xFF,Write,ACK
13.012853948000000,0,0x25,0x0E,Write,ACK
13.012883748000000,0,0x25,0x04,Write,ACK
13.012999896000000,0,0x25,0x0F,Write,ACK
13.013029682000001,0,0x25,0x20,Write,ACK
13.013145696000000,0,0x25,0x10,Write,ACK
13.013175494000000,0,0x25,0x03,Write,ACK
13.013291640000000,0,0x25,0x11,Write,ACK
13.013321412000000,0,0x25,0xF0,Write,ACK
13.013451635999999,0,0x66,0x26,Write,ACK
13.013481404000000,0,0x66,0xFF,Write,ACK
13.013598066000000,0,0x69,0xB1,Write,ACK
13.013627864000000,0,0x69,0xFF,Write,ACK
13.013744010000000,0,0x25,0x0E,Write,ACK
13.013773794000000,0,0x25,0x04,Write,ACK
13.013889722000000,0,0x25,0x0F,Write,ACK
13.013919522000000,0,0x25,0x20,Write,ACK
13.014035362000000,0,0x25,0x10,Write,ACK
13.014065135999999,0,0x25,0x01,Write,ACK
13.014181072000000,0,0x25,0x11,Write,ACK
13.014210847999999,0,0x25,0xF0,Write,ACK
13.014346478000000,0,0x66,0x26,Write,ACK
13.014376243999999,0,0x66,0xFF,Write,ACK
13.014493736000000,0,0x69,0xB1,Write,ACK
13.014523534000000,0,0x69,0xFF,Write,ACK
13.014639676000000,0,0x25,0x0E,Write,ACK
13.014669480000000,0,0x25,0x04,Write,ACK
13.014785414000000,0,0x25,0x0F,Write,ACK
13.014815204000000,0,0x25,0x20,Write,ACK
13.014931226000000,0,0x25,0x10,Write,ACK
13.014961032000000,0,0x25,0x00,Write,ACK
13.015077368000000,0,0x25,0x11,Write,ACK
13.015107146000000,0,0x25,0xF0,Write,ACK
13.015235071999999,0,0x25,0x0D,Write,ACK
13.015337676000000,0,0x25,0x47,Read,NAK
13.016046063999999,0,0x25,0x0D,Write,ACK
13.016151796000001,0,0x25,0x47,Read,NAK
13.016776438000001,0,0x25,0x0B,Write,ACK
13.016883414000000,0,0x25,0x08,Read,NAK
13.017012048000000,0,0x25,0x0D,Write,ACK
13.017114769999999,0,0x25,0x47,Read,NAK
13.017249128000000,0,0x25,0x10,Write,ACK
13.017278914000000,0,0x25,0x1C,Write,ACK
13.017395781999999,0,0x25,0x11,Write,ACK
13.017425552000001,0,0x25,0xFF,Write,ACK
13.017753898000000,0,0x66,0x23,Write,ACK
13.017858356000000,0,0x66,0xFE,Read,NAK
13.017976164000000,0,0x66,0x23,Write,ACK
13.018005953999999,0,0x66,0xF6,Write,ACK
13.018195850000000,0,0x67,0x11,Write,ACK
13.018302836000000,0,0x66,0x08,Read,NAK
13.018434268000000,0,0x25,0x02,Write,ACK
13.018537372000001,0,0x25,0x80,Read,ACK
13.018566858000000,0,0x25,0x5D,Read,ACK
13.018596320000000,0,0x25,0xA0,Read,ACK
13.018625824000001,0,0x25,0x00,Read,NAK
13.018743625999999,0,0x25,0x11,Write,ACK
13.018846106000000,0,0x25,0xFF,Read,NAK
13.018963299999999,0,0x25,0x06,Write,ACK
13.019065798000000,0,0x25,0x27,Read,ACK
13.019095282000000,0,0x25,0x05,Read,ACK
13.019124740000001,0,0x25,0x81,Read,ACK
13.019154228000000,0,0x25,0x18,Read,ACK
13.019183701999999,0,0x25,0x51,Read,ACK
13.019213202000000,0,0x25,0x08,Read,ACK
13.019242655999999,0,0x25,0x19,Read,ACK
13.019272153999999,0,0x25,0x47,Read,NAK
13.019411192000000,0,0x25,0x0B,Write,ACK
13.019514628000000,0,0x25,0x08,Read,NAK
13.019650346000001,0,0x25,0x07,Write,ACK
13.019753588000000,0,0x25,0x05,Read,NAK
13.019899914000000,0,0x25,0x51,Write,ACK
13.020004180000001,0,0x25,0x06,Read,NAK
13.020142608000000,0,0x36,0x06,Write,ACK
13.020246572000000,0,0x36,0x27,Read,ACK
13.020276038000000,0,0x36,0x60,Read,NAK
13.020413636000001,0,0x25,0x21,Write,ACK
13.020443424000000,0,0x25,0x56,Write,ACK
13.020473220000000,0,0x25,0x07,Write,ACK
13.020599142000000,0,0x25,0x41,Write,ACK
13.020628936000000,0,0x25,0x00,Write,ACK
13.020761834000000,0,0x36,0xBB,Write,ACK
13.020864142000001,0,0x36,0x50,Read,ACK
13.020893621999999,0,0x36,0x00,Read,NAK
13.021021707999999,0,0x36,0xBB,Write,ACK
13.021051509999999,0,0x36,0x55,Write,ACK
13.021081318000000,0,0x36,0x00,Write,ACK
13.021214418000000,0,0x25,0x08,Write,ACK
13.021318062000001,0,0x25,0x81,Read,NAK
13.021443681999999,0,0x25,0x0A,Write,ACK
13.021547121999999,0,0x25,0x51,Read,NAK
13.021679905999999,0,0x36,0xB2,Write,ACK
13.021782526000001,0,0x36,0x01,Read,ACK
13.021812012000000,0,0x36,0x00,Read,NAK
13.021944489999999,0,0x25,0x0B,Write,ACK
13.022047823999999,0,0x25,0x08,Read,NAK
13.022181745999999,0,0x36,0x1D,Write,ACK
13.022284470000001,0,0x36,0x10,Read,ACK
13.022313946000001,0,0x36,0x02,Read,NAK
13.022441438000000,0,0x36,0x1D,Write,ACK
13.022471235999999,0,0x36,0x10,Write,ACK
13.022501016000000,0,0x36,0x03,Write,ACK
13.022633722000000,0,0x25,0x0B,Write,ACK
13.022737365999999,0,0x25,0x08,Read,NAK
13.022871102000000,0,0x36,0x3A,Write,ACK
13.022900900000000,0,0x36,0x54,Write,ACK
13.022930680000000,0,0x36,0x7D,Write,ACK
13.023057344000000,0,0x36,0x01,Write,ACK
13.023087122000000,0,0x36,0xA0,Write,ACK
13.023116906000000,0,0x36,0xFF,Write,ACK
13.023249726000000,0,0x25,0x0A,Write,ACK
13.023353176000001,0,0x25,0x51,Read,NAK
13.023485864000000,0,0x36,0x01,Write,ACK
13.023588020000000,0,0x36,0xA0,Read,ACK
13.023617509999999,0,0x36,0xFF,Read,NAK
13.023750533999999,0,0x25,0x0A,Write,ACK
13.023854077999999,0,0x25,0x51,Read,NAK
13.023993232000000,0,0x36,0x2B,Write,ACK
13.024065320000000,,0x3B,,Write,NAK
13.024091984000000,0,0x3B,0x38,Write,ACK
13.024121352000000,0,0x3B,0x1C,Write,ACK
13.024256132000000,0,0x36,0x2B,Write,ACK
13.024285924000001,0,0x36,0x70,Write,ACK
13.024315722000001,0,0x36,0x38,Write,ACK
13.024448938000001,0,0x25,0x0A,Write,ACK
13.024552888000001,0,0x25,0x51,Read,NAK
13.024678614000001,0,0x25,0x08,Write,ACK
13.024781922000001,0,0x25,0x81,Read,NAK
13.024914846000000,0,0x36,0x03,Write,ACK
13.024944624000000,0,0x36,0x01,Write,ACK
13.024974414000001,0,0x36,0xFF,Write,ACK
13.025101496000000,0,0x36,0x02,Write,ACK
13.025131278000000,0,0x36,0x80,Write,ACK
13.025161076000000,0,0x36,0x7F,Write,ACK
13.025293884000000,0,0x25,0x0C,Write,ACK
13.025397421999999,0,0x25,0x19,Read,NAK
13.025530430000000,0,0x36,0x02,Write,ACK
13.025631254000000,0,0x36,0x80,Read,ACK
13.025660741999999,0,0x36,0x7F,Read,NAK
13.025790418000000,0,0x36,0x1D,Write,ACK
13.025893126000000,0,0x36,0x10,Read,ACK
13.025922602000000,0,0x36,0x03,Read,NAK
13.026056228000000,0,0x25,0x0D,Write,ACK
13.026160614000000,0,0x25,0x47,Read,NAK
13.026294770000000,0,0x36,0x1D,Write,ACK
13.026324550000000,0,0x36,0x14,Write,ACK
13.026354341999999,0,0x36,0x03,Write,ACK
13.026481840000001,0,0x66,0x23,Write,ACK
13.026584328000000,0,0x66,0xF6,Read,NAK
13.026701416000000,0,0x66,0x23,Write,ACK
13.026731187999999,0,0x66,0xF2,Write,ACK
13.026863270000000,0,0x66,0x22,Write,ACK
13.026966812000000,0,0x66,0x08,Read,NAK
13.027101496000000,0,0x66,0x26,Write,ACK
13.027131263999999,0,0x66,0xFF,Write,ACK
13.027258566000000,0,0x69,0xB1,Write,ACK
13.027284838000000,0,0x69,0x7F,Write,NAK
13.027421472000000,0,0x25,0x02,Write,ACK
13.027524804000000,0,0x25,0x80,Read,ACK
13.027554284000001,0,0x25,0x00,Read,ACK
13.027583754000000,0,0x25,0x00,Read,ACK
13.027613238000001,0,0x25,0x00,Read,NAK
13.027738960000001,0,0x25,0x11,Write,ACK
13.027844046000000,0,0x25,0xFF,Read,NAK
13.027978418000000,0,0x25,0x0E,Write,ACK
13.028008218000000,0,0x25,0x04,Write,ACK
13.028134447999999,0,0x25,0x0F,Write,ACK
13.028164245999999,0,0x25,0x20,Write,ACK
13.028296640000001,0,0x25,0x06,Write,ACK
13.028399768000000,0,0x25,0x27,Read,ACK
13.028429237999999,0,0x25,0x05,Read,ACK
13.028458704000000,0,0x25,0x81,Read,ACK
13.028488193999999,0,0x25,0x18,Read,ACK
13.028517664000001,0,0x25,0x51,Read,ACK
13.028547152000000,0,0x25,0x08,Read,ACK
13.028576623999999,0,0x25,0x19,Read,ACK
13.028606108000000,0,0x25,0x47,Read,NAK
13.028740254000001,0,0x25,0x10,Write,ACK
13.028770044000000,0,0x25,0x00,Write,ACK
13.028895970000001,0,0x25,0x11,Write,ACK
13.028925748000001,0,0x25,0xF0,Write,ACK
13.029057626000000,0,0x25,0x0B,Write,ACK
13.029164506000001,0,0x25,0x08,Read,NAK
13.029305014000000,0,0x25,0x07,Write,ACK
13.029410014000000,0,0x25,0x05,Read,NAK
13.030122056000000,0,0x25,0x51,Write,ACK
13.030226330000000,0,0x25,0x56,Read,NAK
13.031484590000000,0,0x25,0x52,Write,ACK
13.031591346000001,0,0x25,0x07,Read,NAK
13.031726334000000,0,0x69,0xB7,Write,ACK
13.031827490000000,0,0x69,0x05,Read,NAK
13.031955274000000,0,0x69,0xBD,Write,ACK
13.032057276000000,0,0x69,0x0C,Read,NAK
13.032170674000000,0,0x69,0xBD,Write,ACK
13.032200489999999,0,0x69,0x6C,Write,ACK
13.032332766000000,0,0x25,0x21,Write,ACK
13.032362542000000,0,0x25,0x57,Write,ACK
13.032392342000000,0,0x25,0x01,Write,ACK
13.032516383999999,0,0x25,0x41,Write,ACK
13.032546192000000,0,0x25,0x00,Write,ACK
13.032677524000000,0,0x69,0xBD,Write,ACK
13.032778056000000,0,0x69,0x6C,Read,NAK
13.032891158000000,0,0x69,0xBD,Write,ACK
13.032920964000001,0,0x69,0x6C,Write,ACK
13.033033747999999,0,0x69,0xB8,Write,ACK
13.033134078000000,0,0x69,0x11,Read,NAK
13.033247076000000,0,0x69,0xB8,Write,ACK
13.033276876000000,0,0x69,0x30,Write,ACK
13.033399874000001,0,0x69,0xB8,Write,ACK
13.033500824000001,0,0x69,0x30,Read,NAK
13.033613822000000,0,0x69,0xB8,Write,ACK
13.033643636000001,0,0x69,0x38,Write,ACK
13.033773117999999,0,0x66,0x22,Write,ACK
13.033875296000000,0,0x66,0x08,Read,NAK
13.034007138000000,0,0x69,0xB7,Write,ACK
13.034107678000000,0,0x69,0x05,Read,NAK
13.034220978000000,0,0x69,0xB7,Write,ACK
13.034250778000001,0,0x69,0x05,Write,ACK
13.034373051999999,0,0x69,0xB9,Write,ACK
13.034474010000000,0,0x69,0x4A,Read,NAK
13.034586900000001,0,0x69,0xB9,Write,ACK
13.034616703999999,0,0x69,0x4A,Write,ACK
13.034746266000001,0,0x25,0x02,Write,ACK
13.034848333999999,0,0x25,0x80,Read,ACK
13.034877828000001,0,0x25,0x00,Read,ACK
13.034900442000000,0,0x25,0x00,Read,ACK
13.034929912000001,0,0x25,0x00,Read,ACK
13.035060008000000,0,0x25,0x11,Write,ACK
13.035163109999999,0,0x25,0xF0,Read,NAK
13.035291460000000,0,0x69,0x5E,Read,ACK
13.035395184000000,0,0x69,0x36,Read,NAK
13.035508408000000,0,0x69,0xBC,Write,ACK
13.035538210000000,0,0x69,0x66,Write,ACK
13.035657362000000,0,0x68,0x5E,Read,ACK
13.035761314000000,0,0x69,0x66,Read,NAK
13.035886630000000,0,0x69,0x5E,Read,ACK
13.035916117999999,0,0x69,0x30,Read,ACK
13.036052853999999,0,0x25,0x06,Write,ACK
13.036155166000000,0,0x25,0x27,Read,ACK
13.036184629999999,0,0x25,0x05,Read,ACK
13.036214100000000,0,0x25,0x81,Read,ACK
13.036243590000000,0,0x25,0x18,Read,ACK
13.036273070000000,0,0x25,0x51,Read,ACK
13.036302544000000,0,0x25,0x08,Read,ACK
13.036332032000001,0,0x25,0x19,Read,ACK
13.036361504000000,0,0x25,0x47,Read,NAK
13.036494286000000,0,0x69,0xBD,Write,ACK
13.036594932000000,0,0x69,0x6C,Read,NAK
13.036707809999999,0,0x69,0xBD,Write,ACK
13.036737607999999,0,0x69,0xEC,Write,ACK
13.036859786000001,0,0x69,0xBC,Write,ACK
13.036960338000000,0,0x69,0x60,Read,NAK
13.037087701999999,0,0x25,0x0B,Write,ACK
13.037191454000000,0,0x25,0x08,Read,NAK
13.037322575999999,0,0x69,0xBD,Write,ACK
13.037423201999999,0,0x69,0xEC,Read,NAK
13.037551636000000,0,0x25,0x07,Write,ACK
13.037655072000000,0,0x25,0x05,Read,NAK
13.037787136000000,0,0x69,0xBA,Write,ACK
13.037888078000000,0,0x69,0xD9,Read,NAK
13.038001286000000,0,0x69,0xBA,Write,ACK
13.038031075999999,0,0x69,0xC0,Write,ACK
13.038153882000000,0,0x69,0xBA,Write,ACK
13.038254618000000,0,0x69,0xC0,Read,NAK
13.038367616000000,0,0x69,0xBA,Write,ACK
13.038397412000000,0,0x69,0xD8,Write,ACK
13.038525030000001,0,0x25,0x51,Write,ACK
13.038628151999999,0,0x25,0x57,Read,NAK
13.038759898000000,0,0x69,0xBB,Write,ACK
13.038860632000000,0,0x69,0x13,Read,NAK
13.038973942000000,0,0x69,0xBB,Write,ACK
13.039003746000001,0,0x69,0x1A,Write,ACK
13.039125598000000,0,0x69,0xBB,Write,ACK
13.039226346000000,0,0x69,0x1A,Read,NAK
13.039354147999999,0,0x25,0x21,Write,ACK
13.039383936000000,0,0x25,0x2E,Write,ACK
13.039413734000000,0,0x25,0x04,Write,ACK
13.039443520000001,0,0x25,0x2C,Write,ACK
13.039473296000001,0,0x25,0x91,Write,ACK
13.039503088000000,0,0x25,0x01,Write,ACK
13.039532890000000,0,0x25,0x36,Write,ACK
13.039562662000000,0,0x25,0xC8,Write,ACK
13.039592458000000,0,0x25,0xD0,Write,ACK
13.039622253999999,0,0x25,0x02,Write,ACK
13.039652044000000,0,0x25,0x00,Write,ACK
13.039681820000000,0,0x25,0xC8,Write,ACK
13.039711616000000,0,0x25,0x90,Write,ACK
13.039741424000001,0,0x25,0x41,Write,ACK
13.039771185999999,0,0x25,0x8B,Write,ACK
13.039801002000001,0,0x25,0x37,Write,ACK
13.039830786000000,0,0x25,0x21,Write,ACK
13.039860544000000,0,0x25,0xDC,Write,ACK
13.039890346000000,0,0x25,0xC0,Write,ACK
13.040017438000000,0,0x25,0x41,Write,ACK
13.040047231999999,0,0x25,0x00,Write,ACK
13.040180122000001,0,0x69,0xB2,Write,ACK
13.040280532000001,0,0x69,0xDF,Read,NAK
13.040393966000000,0,0x69,0xC3,Write,ACK
13.040494084000001,0,0x69,0x68,Read,NAK
13.040606964000000,0,0x69,0xC3,Write,ACK
13.040636778000000,0,0x69,0x68,Write,ACK
13.040750718000000,0,0x69,0xBE,Write,ACK
13.040851355999999,0,0x69,0x30,Read,NAK
13.040990180000000,0,0x69,0xBE,Write,ACK
13.041019986000000,0,0x69,0x34,Write,ACK
13.041148838000000,0,0x66,0x22,Write,ACK
13.041253301999999,0,0x66,0x08,Read,NAK
13.041387764000000,0,0x69,0xBE,Write,ACK
13.041488830000000,0,0x69,0x34,Read,NAK
13.041602235999999,0,0x69,0xBE,Write,ACK
13.041632044000000,0,0x69,0x34,Write,ACK
13.041762238000000,0,0x25,0x02,Write,ACK
13.041866592000000,0,0x25,0x80,Read,ACK
13.041896083999999,0,0x25,0x00,Read,ACK
13.041925572000000,0,0x25,0x00,Read,ACK
13.041955054000001,0,0x25,0x00,Read,NAK
13.042080137999999,0,0x25,0x11,Write,ACK
13.042184484000000,0,0x25,0xF0,Read,NAK
13.042316780000000,0,0x69,0xB7,Write,ACK
13.042417318000000,0,0x69,0x05,Read,NAK
13.042530308000000,0,0x69,0xB7,Write,ACK
13.042560114000000,0,0x69,0x15,Write,ACK
13.042682493999999,0,0x66,0x02,Write,ACK
13.042783225999999,0,0x66,0x01,Read,NAK
13.042896036000000,0,0x66,0x02,Write,ACK
13.042925823999999,0,0x66,0x01,Write,ACK
13.043057484000000,0,0x25,0x06,Write,ACK
13.043160924000000,0,0x25,0x27,Read,ACK
13.043190384000001,0,0x25,0x05,Read,ACK
13.043219858000000,0,0x25,0x81,Read,ACK
13.043249346000000,0,0x25,0x18,Read,ACK
13.043278830000000,0,0x25,0x51,Read,ACK
13.043308297999999,0,0x25,0x08,Read,ACK
13.043337778000000,0,0x25,0x19,Read,ACK
13.043367246000001,0,0x25,0x47,Read,NAK
13.043500979999999,0,0x69,0xC0,Write,ACK
13.043601610000000,0,0x69,0x13,Read,NAK
13.043714822000000,0,0x69,0xC0,Write,ACK
13.043744604000000,0,0x69,0x93,Write,ACK
13.043869402000000,0,0x69,0xC2,Write,ACK
13.043970150000000,0,0x69,0x00,Read,NAK
13.044083433999999,0,0x69,0xC2,Write,ACK
13.044109728000000,0,0x69,0x00,Write,ACK
13.044244708000001,0,0x25,0x0B,Write,ACK
13.044348442000000,0,0x25,0x08,Read,NAK
13.044481444000001,0,0x69,0xBF,Write,ACK
13.044582392000001,0,0x69,0x02,Read,NAK
13.044695500000000,0,0x69,0xBF,Write,ACK
13.044725312000001,0,0x69,0x00,Write,ACK
13.044848000000000,0,0x69,0xBF,Write,ACK
13.044948828000001,0,0x69,0x00,Read,NAK
13.045077682000001,0,0x25,0x07,Write,ACK
13.045181956000000,0,0x25,0x05,Read,NAK
13.045314941999999,0,0x69,0xC3,Write,ACK
13.045415684000000,0,0x69,0x68,Read,NAK
13.045528684000001,0,0x69,0xC3,Write,ACK
13.045558498000000,0,0x69,0x68,Write,ACK
13.045680642000001,0,0x69,0xBE,Write,ACK
13.045781706000000,0,0x69,0x34,Read,NAK
13.045895012000001,0,0x69,0xBE,Write,ACK
13.045924820000000,0,0x69,0x34,Write,ACK
13.046056060000000,0,0x25,0x51,Write,ACK
13.046159407999999,0,0x25,0x2E,Read,NAK
13.046292910000000,0,0x69,0xBE,Write,ACK
13.046393544000001,0,0x69,0x34,Read,NAK
13.046524372000000,0,0x25,0x21,Write,ACK
13.046554172000000,0,0x25,0x54,Write,ACK
13.046583962000000,0,0x25,0x00,Write,ACK
13.046709474000000,0,0x25,0x41,Write,ACK
13.046739263999999,0,0x25,0x00,Write,ACK
13.046872252000000,0,0x69,0xBA,Write,ACK
13.046972874000000,0,0x69,0xD8,Read,NAK
13.047086006000001,0,0x69,0xBA,Write,ACK
13.047115789999999,0,0x69,0x98,Write,ACK
13.047228898000000,0,0x69,0xBA,Write,ACK
13.047329211999999,0,0x69,0x98,Read,NAK
13.047453367999999,0,0x69,0xB1,Write,ACK
13.047555861999999,0,0x69,0xFF,Read,NAK
13.047680656000001,0,0x69,0xB2,Write,ACK
13.047781371999999,0,0x69,0xDF,Read,NAK
13.047914806000000,0,0x66,0x22,Write,ACK
13.048018954000000,0,0x66,0x08,Read,NAK
13.048153217999999,0,0x69,0xB3,Write,ACK
13.048254057999999,0,0x69,0xE0,Read,NAK
13.048378103999999,0,0x69,0xB4,Write,ACK
13.048479058000000,0,0x69,0x33,Read,NAK
13.048610913999999,0,0x25,0x02,Write,ACK
13.048714448000000,0,0x25,0x80,Read,ACK
13.048743934000001,0,0x25,0x00,Read,ACK
13.048773402000000,0,0x25,0x00,Read,ACK
13.048802888000001,0,0x25,0x00,Read,NAK
13.048927352000000,0,0x25,0x11,Write,ACK
13.049031818000000,0,0x25,0xF0,Read,NAK
13.049164614000000,0,0x69,0xB5,Write,ACK
13.049265266000001,0,0x69,0x00,Read,NAK
13.049389302000000,0,0x69,0xB6,Write,ACK
13.049490024000001,0,0x69,0xFF,Read,NAK
13.049621699999999,0,0x25,0x06,Write,ACK
13.049724940000001,0,0x25,0x27,Read,ACK
13.049754402000000,0,0x25,0x05,Read,ACK
13.049783862000000,0,0x25,0x81,Read,ACK
13.049813373999999,0,0x25,0x18,Read,ACK
13.049842827999999,0,0x25,0x51,Read,ACK
13.049872320000000,0,0x25,0x08,Read,ACK
13.049901796000000,0,0x25,0x19,Read,ACK
13.049931270000000,0,0x25,0x47,Read,NAK
13.050065728000000,0,0x69,0xB7,Write,ACK
13.050166364000001,0,0x69,0x15,Read,NAK
13.050290604000001,0,0x69,0xB8,Write,ACK
13.050391235999999,0,0x69,0x38,Read,NAK
13.050522896000000,0,0x25,0x0B,Write,ACK
13.050626560000000,0,0x25,0x08,Read,NAK
13.050759434000000,0,0x69,0xB9,Write,ACK
13.050860174000000,0,0x69,0x4A,Read,NAK
13.050984002000000,0,0x69,0xBA,Write,ACK
13.051084624000000,0,0x69,0x98,Read,NAK
13.051216406000000,0,0x25,0x07,Write,ACK
13.051320144000000,0,0x25,0x05,Read,NAK
13.051453558000000,0,0x69,0xBB,Write,ACK
13.051554105999999,0,0x69,0x1A,Read,NAK
13.051677919999999,0,0x69,0xBC,Write,ACK
13.051778572000000,0,0x69,0x60,Read,NAK
13.051940112000000,0,0x25,0x51,Write,ACK
13.052044481999999,0,0x25,0x54,Read,NAK
13.052169471999999,0,0x25,0x51,Write,ACK
13.052273422000001,0,0x25,0x00,Read,ACK
13.052406420000001,0,0x69,0xBD,Write,ACK
13.052505582000000,0,0x69,0xEC,Read,NAK
13.052627864000000,0,0x69,0xBE,Write,ACK
13.052726628000000,0,0x69,0x34,Read,NAK
13.052856415999999,0,0x25,0x21,Write,ACK
13.052886206000000,0,0x25,0x0C,Write,ACK
13.052915988000001,0,0x25,0x1F,Write,ACK
13.053040884000000,0,0x25,0x41,Write,ACK
13.053070672000000,0,0x25,0x00,Write,ACK
13.053202014000000,0,0x69,0xBF,Write,ACK
13.053300984000000,0,0x69,0x00,Read,NAK
13.053413654000000,0,0x69,0xC0,Write,ACK
13.053512403999999,0,0x69,0x93,Read,NAK
13.053624906000000,0,0x69,0xC1,Write,ACK
13.053723760000000,0,0x69,0x14,Read,NAK
13.053836029999999,0,0x69,0xC2,Write,ACK
13.053934374000001,0,0x69,0x00,Read,NAK
13.054100694000001,0,0x69,0xC3,Write,ACK
13.054199790000000,0,0x69,0x68,Read,NAK
13.054326641999999,0,0x66,0x22,Write,ACK
13.054431332000000,0,0x66,0x08,Read,NAK
13.054563591999999,0,0x69,0xB2,Write,ACK
13.054662766000000,0,0x69,0xDF,Read,NAK
13.054784098000001,0,0x69,0xC0,Write,ACK
13.054883062000000,0,0x69,0x93,Read,NAK
13.055010360000001,0,0x25,0x02,Write,ACK
13.055114401999999,0,0x25,0x80,Read,ACK
13.055143910000000,0,0x25,0x00,Read,ACK
13.055173366000000,0,0x25,0x00,Read,ACK
13.055202850000001,0,0x25,0x00,Read,NAK
13.055327308000001,0,0x25,0x11,Write,ACK
13.055431567999999,0,0x25,0xF0,Read,NAK
13.055563222000000,0,0x69,0xB9,Write,ACK
13.055662112000000,0,0x69,0x4A,Read,NAK
13.055789680000000,0,0x25,0x06,Write,ACK
13.055895730000000,0,0x25,0x27,Read,ACK
13.055925214000000,0,0x25,0x05,Read,ACK
13.055954672000000,0,0x25,0x81,Read,ACK
13.055984160000000,0,0x25,0x18,Read,ACK
13.056013632000001,0,0x25,0x51,Read,ACK
13.056043102000000,0,0x25,0x08,Read,ACK
13.056072600000000,0,0x25,0x19,Read,ACK
13.056102062000001,0,0x25,0x47,Read,NAK
13.056237162000000,0,0x66,0x01,Write,ACK
13.056338002000000,0,0x66,0x02,Read,NAK
13.056472142000001,0,0x25,0x0B,Write,ACK
13.056580372000001,0,0x25,0x08,Read,NAK
13.056720572000000,0,0x25,0x07,Write,ACK
13.056824735999999,0,0x25,0x02,Read,NAK
13.056966171999999,0,0x25,0x51,Write,ACK
13.057070552000001,0,0x25,0x0C,Read,NAK
13.057187924000001,0,0x25,0x52,Write,ACK
13.057294270000000,0,0x25,0x00,Read,NAK
13.057429581999999,0,0x69,0xB2,Write,ACK
13.057530826000001,0,0x69,0xDF,Read,NAK
13.057657188000000,0,0x66,0x26,Write,ACK
13.057686951999999,0,0x66,0xFF,Write,ACK
13.057819464000000,0,0x25,0x21,Write,ACK
13.057849250000000,0,0x25,0x1C,Write,ACK
13.057974140000001,0,0x25,0x41,Write,ACK
13.058003926000000,0,0x25,0x00,Write,ACK
13.058136510000001,0,0x69,0xB1,Write,ACK
13.058166306000000,0,0x69,0xFE,Write,ACK
13.058280170000000,0,0x25,0x0E,Write,ACK
13.058309961999999,0,0x25,0x04,Write,ACK
13.058423076000000,0,0x25,0x0F,Write,ACK
13.058452861999999,0,0x25,0x20,Write,ACK
13.058565770000000,0,0x25,0x10,Write,ACK
13.058595562000001,0,0x25,0x00,Write,ACK
13.058708266000000,0,0x25,0x11,Write,ACK
13.058738042000000,0,0x25,0xF0,Write,ACK
13.058868056000000,0,0x66,0x22,Write,ACK
13.058973170000000,0,0x66,0x08,Read,NAK
13.059107109999999,0,0x66,0x26,Write,ACK
13.059136890000000,0,0x66,0xFF,Write,ACK
13.059260836000000,0,0x69,0xB1,Write,ACK
13.059290620000001,0,0x69,0xFA,Write,ACK
13.059422405999999,0,0x25,0x02,Write,ACK
13.059525618000000,0,0x25,0x80,Read,ACK
13.059555101999999,0,0x25,0x00,Read,ACK
13.059584588000000,0,0x25,0x00,Read,ACK
13.059614057999999,0,0x25,0x00,Read,NAK
13.059738316000001,0,0x25,0x11,Write,ACK
13.059844446000000,0,0x25,0xF0,Read,NAK
13.059979234000000,0,0x25,0x0E,Write,ACK
13.060009038000000,0,0x25,0x04,Write,ACK
13.060132039999999,0,0x25,0x0F,Write,ACK
13.060161838000001,0,0x25,0x20,Write,ACK
13.060293266000000,0,0x25,0x06,Write,ACK
13.060396404000000,0,0x25,0x27,Read,ACK
13.060425889999999,0,0x25,0x05,Read,ACK
13.060455362000001,0,0x25,0x81,Read,ACK
13.060484846000000,0,0x25,0x18,Read,ACK
13.060514322000000,0,0x25,0x51,Read,ACK
13.060543792000001,0,0x25,0x04,Read,ACK
13.060569940000001,0,0x25,0x0C,Read,NAK
13.060599430000000,0,0x25,0x23,Read,NAK
13.060736408000000,0,0x25,0x10,Write,ACK
13.060766176000000,0,0x25,0x00,Write,ACK
13.060889604000000,0,0x25,0x11,Write,ACK
13.060919384000000,0,0x25,0xF0,Write,ACK
13.061047933999999,0,0x25,0x0B,Write,ACK
13.061174601999999,0,0x25,0x08,Read,NAK
13.061310324000001,0,0x66,0x02,Write,ACK
13.061411462000001,0,0x66,0x01,Read,NAK
13.061524768000000,0,0x66,0x02,Write,ACK
13.061554564000000,0,0x66,0x80,Write,NAK
13.061698620000000,0,0x66,0x26,Write,ACK
13.061728402000000,0,0x66,0xDF,Write,ACK
13.061862464000001,0,0x25,0x07,Write,ACK
13.061964873999999,0,0x25,0x05,Read,NAK
13.062094626000000,0,0x69,0xB1,Write,ACK
13.062124413999999,0,0x69,0xFA,Write,ACK
13.062250674000000,0,0x25,0x0E,Write,ACK
13.062280471999999,0,0x25,0x04,Write,ACK
13.062415368000000,0,0x25,0x51,Write,ACK
13.062517958000001,0,0x25,0x1C,Read,NAK
13.062641478000000,0,0x25,0x52,Write,ACK
13.062743690000000,0,0x25,0x65,Read,NAK
13.062878238000000,0,0x25,0x0F,Write,ACK
13.062908040000000,0,0x25,0x20,Write,ACK
13.063027406000000,0,0x25,0x10,Write,ACK
13.063057199999999,0,0x25,0x00,Write,ACK
13.063173856000001,0,0x25,0x11,Write,ACK
13.063203632000000,0,0x25,0xF0,Write,ACK
13.063339266000000,0,0x66,0x26,Write,ACK
13.063369052000001,0,0x66,0xDF,Write,ACK
13.063493818000000,0,0x69,0xB1,Write,ACK
13.063523615999999,0,0x69,0xFA,Write,ACK
13.063640813999999,0,0x25,0x0E,Write,ACK
13.063670606000001,0,0x25,0x04,Write,ACK
13.063786628000001,0,0x25,0x0F,Write,ACK
13.063816428000001,0,0x25,0x20,Write,ACK
13.063934648000000,0,0x25,0x10,Write,ACK
13.063964422000000,0,0x25,0x00,Write,ACK
13.064081004000000,0,0x25,0x11,Write,ACK
13.064110778000000,0,0x25,0xF0,Write,ACK
13.064244307999999,0,0x69,0xBD,Write,ACK
13.064347328000000,0,0x69,0xEC,Read,NAK
13.064463976000001,0,0x69,0xBD,Write,ACK
13.064493768000000,0,0x69,0xED,Write,ACK
13.067934923999999,0,0x69,0xB2,Write,ACK
13.068035234000000,0,0x69,0xDF,Read,NAK
13.068156586000001,0,0x69,0xB2,Write,ACK
13.068256568000001,0,0x69,0xEF,Read,NAK
13.186136260000000,0,0x36,0x08,Write,ACK
13.186166062000000,0,0x36,0x66,Write,ACK
13.186195850000001,0,0x36,0x1E,Write,ACK
13.186668012000000,0,0x36,0x06,Write,ACK
13.186765088000000,0,0x36,0x27,Read,ACK
13.186794574000000,0,0x36,0x60,Read,NAK
13.186905078000001,0,0x36,0x09,Write,ACK
13.187008298000000,0,0x36,0x38,Read,ACK
13.187037772000000,0,0x36,0xD4,Read,NAK
13.187150788000000,0,0x36,0x0B,Write,ACK
13.187246829999999,0,0x36,0x0B,Read,ACK
13.187276316000000,0,0x36,0x00,Read,NAK
13.187385043999999,0,0x36,0x09,Write,ACK
13.187480878000001,0,0x36,0x38,Read,ACK
13.187510344000000,0,0x36,0xD4,Read,NAK
13.187625662000000,0,0x36,0x06,Write,ACK
13.187721608000000,0,0x36,0x27,Read,ACK
13.187751073999999,0,0x36,0x60,Read,NAK
13.187861910000001,0,0x36,0x05,Write,ACK
13.187958761999999,0,0x36,0xDF,Read,ACK
13.187988252000000,0,0x36,0x10,Read,NAK
13.188097411999999,0,0x36,0x4D,Write,ACK
13.188193357999999,0,0x36,0x00,Read,ACK
13.188222818000000,0,0x36,0x00,Read,NAK
13.188382173999999,0,0x69,0xBD,Write,ACK
13.188478212000000,0,0x69,0xEC,Read,NAK
13.188587677999999,0,0x69,0xC0,Write,ACK
13.188683618000001,0,0x69,0x93,Read,NAK
13.188792254000001,0,0x69,0xC0,Write,ACK
13.188822031999999,0,0x69,0x92,Write,ACK
13.188930058000000,0,0x69,0xB3,Write,ACK
13.189026004000000,0,0x69,0xE0,Read,NAK
13.189150054000001,0,0x69,0xBD,Write,ACK
13.189246088000001,0,0x69,0xEC,Read,NAK
13.189357749999999,0,0x69,0xB9,Write,ACK
13.189453697999999,0,0x69,0x4A,Read,NAK
13.189562314000000,0,0x69,0xB9,Write,ACK
13.189592118000000,0,0x69,0x4B,Write,ACK
13.189712827999999,0,0x69,0xC1,Write,ACK
13.189742636000000,0,0x69,0x10,Write,ACK
13.189867612000000,0,0x69,0xBD,Write,ACK
13.189963649999999,0,0x69,0xEC,Read,NAK
13.190109886000000,0,0x69,0xBD,Write,ACK
13.190206035999999,0,0x69,0xEC,Read,NAK
13.190319874000000,0,0x69,0xB7,Write,ACK
13.190415732000000,0,0x69,0x15,Read,NAK
13.190524143999999,0,0x69,0xB7,Write,ACK
13.190553948000000,0,0x69,0x14,Write,ACK
13.190661942000000,0,0x69,0xB7,Write,ACK
13.190757894000001,0,0x69,0x14,Read,NAK
13.190905994000000,0,0x69,0xBD,Write,ACK
13.191002237999999,0,0x69,0xEC,Read,NAK
13.191115472000000,0,0x66,0x26,Write,ACK
13.191145254000000,0,0x66,0xDF,Write,ACK
13.191265661999999,0,0x69,0xBD,Write,ACK
13.191367536000000,0,0x69,0xEC,Read,NAK
13.191492212000000,0,0x69,0xC0,Write,ACK
13.191594184000000,0,0x69,0x92,Read,NAK
13.191717607999999,0,0x69,0xB1,Write,ACK
13.191747424000001,0,0x69,0x7A,Write,ACK
13.191858140000001,0,0x25,0x0E,Write,ACK
13.191887926000000,0,0x25,0x04,Write,ACK
13.192008738000000,0,0x69,0xC3,Write,ACK
13.192110632000000,0,0x69,0x68,Read,NAK
13.192227172000001,0,0x69,0xC3,Write,ACK
13.192256980000000,0,0x69,0x68,Write,ACK
13.192377382000000,0,0x69,0x61,Write,NAK
13.192482375999999,0,0x69,0x68,Read,NAK
13.192605390000001,0,0x25,0x0F,Write,ACK
13.192635188000001,0,0x25,0x20,Write,ACK
13.192744965999999,0,0x25,0x10,Write,ACK
13.192774752000000,0,0x25,0x00,Write,ACK
13.192894208000000,0,0x69,0xC3,Write,ACK
13.192965892000000,,0x68,,Read,NAK
13.192992560000000,0,0x68,0x34,Read,ACK
13.193118688000000,0,0x25,0x11,Write,ACK
13.193148452000001,0,0x25,0xF0,Write,ACK
13.193268452000000,0,0x69,0xB1,Write,ACK
13.193340230000000,,0x64,,Read,NAK
13.193366923999999,0,0x64,0x3D,Read,ACK
13.193493439999999,0,0x69,0xB2,Write,ACK
13.193589080000001,0,0x69,0xDF,Read,NAK
13.193709166000000,0,0x69,0xB2,Write,ACK
13.193810520000000,0,0x69,0xDF,Read,NAK
13.193935507999999,0,0x69,0xB3,Write,ACK
13.194037081999999,0,0x69,0xE0,Read,NAK
13.194159768000000,0,0x69,0xBD,Write,ACK
13.194255176000000,0,0x69,0xEC,Read,NAK
13.194366004000001,0,0x69,0xBA,Write,ACK
13.194461327999999,0,0x69,0x98,Read,NAK
13.194569535999999,0,0x69,0xBA,Write,ACK
13.194599340000000,0,0x69,0x9F,Write,ACK
13.194718812000000,0,0x69,0xB4,Write,ACK
13.194820492000000,0,0x69,0x33,Read,NAK
13.194943779999999,0,0x69,0xBD,Write,ACK
13.195039098000001,0,0x69,0xEC,Read,NAK
13.195152525999999,0,0x69,0xBB,Write,ACK
13.195247852000000,0,0x69,0x1A,Read,NAK
13.195355740000000,0,0x69,0xBB,Write,ACK
13.195385556000000,0,0x69,0x1A,Write,ACK
13.195505116000000,0,0x69,0xB5,Write,ACK
13.195606796000000,0,0x69,0x00,Read,NAK
13.195729992000000,0,0x69,0xBB,Write,ACK
13.195866260000001,0,0x69,0x1A,Read,NAK
13.196000280000000,0,0x69,0xB6,Write,ACK
13.196099770000000,0,0x69,0xFF,Read,NAK
13.196237370000000,0,0x36,0x0A,Write,ACK
13.196333210000001,0,0x36,0x7A,Read,ACK
13.196362669999999,0,0x36,0xFF,Read,NAK
13.196474756000001,0,0x36,0x0B,Write,ACK
13.196570068000000,0,0x36,0x09,Read,ACK
13.196599537999999,0,0x36,0x00,Read,NAK
13.196719726000000,0,0x69,0xB7,Write,ACK
13.196818801999999,0,0x69,0x14,Read,NAK
13.196938039999999,0,0x69,0xB8,Write,ACK
13.197037526000001,0,0x69,0x38,Read,NAK
13.197157947999999,0,0x36,0x09,Write,ACK
13.197257318000000,0,0x36,0x38,Read,ACK
13.197286772000000,0,0x36,0xD4,Read,NAK
13.197401266000000,0,0x36,0x43,Write,ACK
13.197497286000001,0,0x36,0xAA,Read,ACK
13.197526780000000,0,0x36,0x0B,Read,NAK
13.197646327999999,0,0x69,0xB9,Write,ACK
13.197745624000000,0,0x69,0x4B,Read,NAK
13.197864458000000,0,0x69,0xBA,Write,ACK
13.197963617999999,0,0x69,0x9F,Read,NAK
13.198083096000000,0,0x36,0x4B,Write,ACK
13.198178503999999,0,0x36,0xEA,Read,ACK
13.198207992000000,0,0x36,0x05,Read,NAK
13.198327144000000,0,0x69,0xBB,Write,ACK
13.198426098000001,0,0x69,0x1A,Read,NAK
13.198539006000001,0,0x69,0xBC,Write,ACK
13.198637873999999,0,0x69,0x60,Read,NAK
13.198750331999999,0,0x69,0xBD,Write,ACK
13.198848992000000,0,0x69,0xEC,Read,NAK
13.198961486000000,0,0x69,0xBE,Write,ACK
13.199060242000000,0,0x69,0x34,Read,NAK
13.199172826000000,0,0x69,0xBF,Write,ACK
13.199271782000000,0,0x69,0x00,Read,NAK
13.199384366000000,0,0x69,0xC0,Write,ACK
13.199483338000000,0,0x69,0x92,Read,NAK
13.199595820000001,0,0x69,0xC1,Write,ACK
13.199694708000001,0,0x69,0x10,Read,NAK
13.199807034000001,0,0x69,0xC2,Write,ACK
13.199905928000000,0,0x69,0x00,Read,NAK
13.200019451999999,0,0x69,0xC3,Write,ACK
13.200118206000001,0,0x69,0x68,Read,NAK
13.200242766000001,0,0x69,0xB3,Write,ACK
13.200342252000000,0,0x69,0xE0,Read,NAK
13.200454424000000,0,0x69,0xC3,Write,ACK
13.200553288000000,0,0x69,0x68,Read,NAK
13.200664714000000,0,0x69,0xC3,Write,ACK
13.200694521999999,0,0x69,0x68,Write,ACK
13.200860230000000,0,0x69,0xBD,Write,ACK
13.200960238000000,0,0x69,0xEC,Read,NAK
13.201146366000000,0,0x69,0xBD,Write,ACK
13.201246052000000,0,0x69,0xF6,Read,ACK
13.201375518000001,0,0x69,0xB7,Write,ACK
13.201444878000000,,0x74,,Read,NAK
13.201471580000000,0,0x74,0x0A,Read,ACK
13.201586854000000,0,0x69,0xB7,Write,ACK
13.201616656000001,0,0x69,0x14,Write,ACK
13.201727996000001,0,0x69,0xB7,Write,ACK
13.201826440000000,0,0x69,0x14,Read,NAK
13.201979228000001,0,0x69,0xBD,Write,ACK
13.202078824000001,0,0x69,0xF6,Read,ACK
13.202252130000000,0,0x69,0xBD,Write,ACK
13.202352560000000,0,0x69,0xEC,Read,NAK
13.202478144000001,0,0x69,0x5B,Write,NAK
13.202580687999999,0,0x69,0x14,Read,NAK
13.202692111999999,0,0x69,0xB7,Write,ACK
13.202721926000001,0,0x69,0x15,Write,ACK
13.202832942000001,0,0x69,0xB7,Write,ACK
13.202931908000000,0,0x69,0x15,Read,NAK
13.203122084000000,0,0x69,0xBD,Write,ACK
13.203221884000000,0,0x69,0xEC,Read,NAK
13.203334355999999,0,0x69,0xC0,Write,ACK
13.203433221999999,0,0x69,0x92,Read,NAK
13.203544660000000,0,0x69,0xC0,Write,ACK
13.203574467999999,0,0x69,0x92,Write,ACK
13.203686427999999,0,0x69,0xB3,Write,ACK
13.203785180000001,0,0x69,0xE0,Read,NAK
13.203991736000001,0,0x36,0x09,Write,ACK
13.204095386000001,0,0x36,0x38,Read,ACK
13.204124852000000,0,0x36,0xD4,Read,NAK
13.204244436000000,0,0x36,0x19,Write,ACK
13.204346304000000,0,0x36,0x6C,Read,ACK
13.204375768000000,0,0x36,0xD6,Read,NAK
13.204494420000000,0,0x36,0x0A,Write,ACK
13.204595992000000,0,0x36,0x7A,Read,ACK
13.204625448000000,0,0x36,0xFF,Read,NAK
13.204749612000001,0,0x36,0x0B,Write,ACK
13.204851176000000,0,0x36,0x09,Read,ACK
13.204880667999999,0,0x36,0x00,Read,NAK
13.204997934000000,0,0x36,0x09,Write,ACK
13.205099390000001,0,0x36,0x38,Read,ACK
13.205128847999999,0,0x36,0xD4,Read,NAK
13.205257286000000,0,0x36,0x4B,Write,ACK
13.205359568000000,0,0x36,0xEA,Read,ACK
13.205389060000000,0,0x36,0x05,Read,NAK
13.205507795999999,0,0x36,0x43,Write,ACK
13.205609345999999,0,0x36,0xAA,Read,ACK
13.205638840000001,0,0x36,0x0B,Read,NAK
13.232176192000001,0,0x36,0x08,Write,ACK
13.232205986000000,0,0x36,0x66,Write,ACK
13.232235776000000,0,0x36,0x1E,Write,ACK
13.232366702000000,0,0x36,0x06,Write,ACK
13.232469408000000,0,0x36,0x27,Read,ACK
13.232498884000000,0,0x36,0x60,Read,NAK
13.232617540000000,0,0x36,0x09,Write,ACK
13.232719716000000,0,0x36,0x38,Read,ACK
13.232745866000000,0,0x36,0x6A,Read,ACK
13.232866998000000,0,0x36,0x0B,Write,ACK
13.232968972000000,0,0x36,0x09,Read,ACK
13.232998442000000,0,0x36,0x00,Read,NAK
13.233115828000001,0,0x36,0x09,Write,ACK
13.233217502000000,0,0x36,0x38,Read,ACK
13.233246972000000,0,0x36,0xD4,Read,NAK
13.233384561999999,0,0x36,0x06,Write,ACK
13.233486967999999,0,0x36,0x27,Read,ACK
13.233516442000001,0,0x36,0x60,Read,NAK
13.233640288000000,0,0x36,0x05,Write,ACK
13.233742246000000,0,0x36,0xDF,Read,ACK
13.233771746000000,0,0x36,0x10,Read,NAK
13.233889231999999,0,0x36,0x4D,Write,ACK
13.233990884000001,0,0x36,0x00,Read,ACK
13.234020376000000,0,0x36,0x00,Read,NAK
13.234213260000001,0,0x69,0xBD,Write,ACK
13.234315982000000,0,0x69,0xEC,Read,NAK
13.234432935999999,0,0x69,0xBD,Write,ACK
13.234462726000000,0,0x69,0xED,Write,ACK
13.234578969999999,0,0x69,0xBA,Write,ACK
13.234680645999999,0,0x69,0x31,Read,NAK
13.234806762000000,0,0x69,0xB3,Write,ACK
13.234909080000000,0,0x69,0xE0,Read,NAK
13.235033840000000,0,0x69,0xB4,Write,ACK
13.235135946000000,0,0x69,0x31,Read,NAK
13.235254422000001,0,0x69,0x59,Write,NAK
13.235359448000001,0,0x69,0xE0,Read,NAK
13.235477988000000,0,0x69,0xB4,Write,ACK
13.235580086000001,0,0x69,0x31,Read,NAK
13.235696300000001,0,0x69,0xB7,Write,ACK
13.235797910000000,0,0x69,0x15,Read,NAK
13.235917748000000,0,0x36,0xD0,Write,ACK
13.236018494000000,0,0x36,0x42,Read,ACK
13.236047976000000,0,0x36,0x0F,Read,NAK
13.236165236000000,0,0x36,0xB3,Write,ACK
13.236265652000000,0,0x36,0x51,Read,ACK
13.236295154000000,0,0x36,0x2B,Read,NAK
13.236517087999999,0,0x69,0xBD,Write,ACK
13.236618446000000,0,0x69,0xEC,Read,NAK
13.236739888000001,0,0x69,0xB1,Write,ACK
13.236840424000000,0,0x69,0x7A,Read,NAK
13.236956854000001,0,0x69,0xB2,Write,ACK
13.237057485999999,0,0x69,0xDF,Read,NAK
13.237173088000000,0,0x69,0xB3,Write,ACK
13.237273394000001,0,0x69,0xE0,Read,NAK
13.237389128000000,0,0x69,0xB4,Write,ACK
13.237489350000001,0,0x69,0x31,Read,NAK
13.237604945999999,0,0x69,0xB5,Write,ACK
13.237705488000000,0,0x69,0x00,Read,NAK
13.237821192000000,0,0x69,0xB6,Write,ACK
13.237921510000000,0,0x69,0xFF,Read,NAK
13.238037004000001,0,0x69,0xB7,Write,ACK
13.238137448000000,0,0x69,0x15,Read,NAK
13.238253346000000,0,0x69,0xB8,Write,ACK
13.238353589999999,0,0x69,0x38,Read,NAK
13.238469264000001,0,0x69,0xB9,Write,ACK
13.238569602000000,0,0x69,0x4B,Read,NAK
13.238685400000000,0,0x69,0xBA,Write,ACK
13.238785726000000,0,0x69,0x9F,Read,NAK
13.238901556000000,0,0x69,0xBB,Write,ACK
13.239001763999999,0,0x69,0x1A,Read,NAK
13.239117478000001,0,0x69,0xBC,Write,ACK
13.239217804000001,0,0x69,0x60,Read,NAK
13.239333708000000,0,0x69,0xBD,Write,ACK
13.239434226000000,0,0x69,0xEC,Read,NAK
13.239550149999999,0,0x69,0xBE,Write,ACK
13.239650594000000,0,0x69,0x34,Read,NAK
13.239766396000000,0,0x69,0xBF,Write,ACK
13.239873791999999,0,0x69,0x00,Read,NAK
13.239997735999999,0,0x69,0xC0,Write,ACK
13.240100022000000,0,0x69,0x92,Read,NAK
13.240217926000000,0,0x69,0xC1,Write,ACK
13.240319921999999,0,0x69,0x10,Read,NAK
13.240437288000001,0,0x69,0xC2,Write,ACK
13.240538969999999,0,0x69,0x00,Read,NAK
13.240656558000000,0,0x69,0xC3,Write,ACK
13.240758132000000,0,0x69,0x68,Read,NAK
13.240886644000000,0,0x69,0xB7,Write,ACK
13.240988740000001,0,0x69,0x15,Read,NAK
13.241105586000000,0,0x69,0xBC,Write,ACK
13.241207277999999,0,0x69,0x60,Read,NAK
13.241421716000000,0,0x36,0x0A,Write,ACK
13.241524227999999,0,0x36,0x7A,Read,ACK
13.241553692000000,0,0x36,0xFF,Read,NAK
13.241679626000000,0,0x36,0x0B,Write,ACK
13.241780783999999,0,0x36,0x09,Read,ACK
13.241810252000001,0,0x36,0x00,Read,NAK
13.241926897999999,0,0x36,0x09,Write,ACK
13.242027626000000,0,0x36,0x38,Read,ACK
13.242057096000000,0,0x36,0xD4,Read,NAK
13.242188755999999,0,0x36,0x43,Write,ACK
13.242290108000001,0,0x36,0xAA,Read,ACK
13.242319600000000,0,0x36,0x0B,Read,NAK
13.242439392000000,0,0x36,0x4B,Write,ACK
13.242540200000001,0,0x36,0xEA,Read,ACK
13.242569696000000,0,0x36,0x05,Read,NAK
13.518895219999999,,0x7F,,Read,NAK
13.519160328000000,0,0x7F,0xFF,Read,NAK
13.519390702000001,0,0x7F,0xFF,Read,NAK
13.519553174000000,0,0x7F,0xFF,Read,NAK
13.519657550000000,0,0x7F,0xFF,Read,NAK
13.519790470000000,0,0x7F,0xFF,Read,NAK
13.519858888000000,0,0x7F,0xFF,Read,NAK
13.519891257999999,0,0x7F,0xFF,Read,NAK
13.519933096000001,0,0x7F,0xFF,Read,NAK
13.519972795999999,0,0x7F,0xFF,Read,NAK
13.520020618000000,0,0x7F,0xFF,Read,NAK
14.495686616000000,0,0x69,0xB2,Write,ACK
14.495798912000000,0,0x69,0xDF,Read,NAK
14.545547084000001,0,0x36,0x0A,Write,ACK
14.545662596000000,0,0x36,0x0B,Read,ACK
14.545692064000001,0,0x36,0xF6,Read,NAK
14.545828106000000,0,0x36,0x0B,Write,ACK
14.545939870000000,0,0x36,0x5F,Read,ACK
14.545969341999999,0,0x36,0xFF,Read,NAK
14.546100694000000,0,0x36,0x09,Write,ACK
14.546212044000001,0,0x36,0x9E,Read,ACK
14.546241512000000,0,0x36,0xC7,Read,NAK
14.546384425999999,0,0x36,0x43,Write,ACK
14.546496618000001,0,0x36,0x36,Read,ACK
14.546526090000000,0,0x36,0x0D,Read,NAK
14.546657443999999,0,0x36,0x4B,Write,ACK
14.546768674000001,0,0x36,0xA8,Read,ACK
14.546798160000000,0,0x36,0x06,Read,NAK
14.548317746000000,0,0x69,0xB2,Write,ACK
14.548429413999999,0,0x69,0xDF,Read,NAK
14.808430810000001,,0x7F,,Read,NAK
14.808598564000000,0,0x7F,0xFF,Read,NAK
14.808698730000000,0,0x7F,0xFF,Read,NAK
14.808765222000000,0,0x7F,0xFF,Read,NAK
14.808801512000000,0,0x7F,0xFF,Read,NAK
14.808867410000000,0,0x7F,0xFF,Read,NAK
14.808900678000001,0,0x7F,0xFF,Read,NAK
14.808945128000000,0,0x7F,0xFF,Read,NAK
14.808997595999999,0,0x7F,0xFF,Read,NAK
14.809033098000000,0,0x7F,0xFF,Read,NAK
14.809101868000001,0,0x7F,0xFF,Read,NAK
14.809201620000000,0,0x7F,0xFF,Read,NAK
14.809333734000001,0,0x7F,0xFF,Read,NAK
14.809466260000001,0,0x7F,0xFF,Read,NAK
14.809600302000000,0,0x7F,0xFF,Read,NAK
14.809733414000000,0,0x7F,0xFF,Read,NAK
14.809965955999999,0,0x7F,0xFF,Read,NAK
16.655777770000000,0,0x36,0x09,Write,ACK
16.655899538000000,0,0x36,0x10,Read,ACK
16.655929010000001,0,0x36,0xCE,Read,NAK
16.656100980000001,0,0x36,0x19,Write,ACK
16.656224221999999,0,0x36,0x6D,Read,ACK
16.656253679999999,0,0x36,0xD5,Read,NAK
16.656411471999998,0,0x69,0xBD,Write,ACK
16.656523979999999,0,0x69,0xEC,Read,NAK
16.656675111999999,0,0x69,0xBB,Write,ACK
16.656787628000000,0,0x69,0x1A,Read,NAK
16.656917494000002,0,0x69,0xBB,Write,ACK
16.656947297999999,0,0x69,0x16,Write,ACK
16.657092076000001,0,0x36,0xFB,Write,ACK
16.657212714000000,0,0x36,0x57,Read,ACK
16.657242184000001,0,0x36,0xD6,Read,NAK
16.657394962000001,0,0x69,0xBB,Write,ACK
16.657514469999999,0,0x69,0x16,Read,NAK
16.657655594000001,0,0x36,0x13,Write,ACK
16.657685392000001,0,0x36,0x00,Write,ACK
16.657715172000000,0,0x36,0x5B,Write,ACK
16.657862756000000,0,0x36,0x00,Write,ACK
16.657981700000001,0,0x36,0x80,Read,ACK
16.658011208000001,0,0x36,0x00,Read,NAK
16.658166305999998,0,0x36,0x01,Write,ACK
16.658331394000001,0,0x36,0xA0,Read,ACK
16.658360865999999,0,0x36,0xFF,Read,NAK
16.658509087999999,0,0x36,0x13,Write,ACK
16.658621168000000,0,0x36,0x00,Read,ACK
16.658650651999999,0,0x36,0x5B,Read,NAK
16.658785558000002,0,0x36,0x00,Write,NAK
16.658907192000001,0,0x36,0x80,Read,ACK
16.658936682000000,0,0x36,0x7F,Read,NAK
16.659073329999998,0,0x36,0x03,Write,ACK
16.659190536000001,0,0x36,0x01,Read,ACK
16.659219990000000,0,0x36,0xFF,Read,NAK
16.659355302000002,0,0x36,0x04,Write,ACK
16.659471960000001,0,0x36,0x00,Read,ACK
16.659501444000000,0,0x36,0x19,Read,NAK
16.659651946000000,0,0x36,0x05,Write,ACK
16.659777668000000,0,0x36,0xDE,Read,ACK
16.659807151999999,0,0x36,0x10,Read,NAK
16.659949734000001,0,0x36,0x06,Write,ACK
16.660068916000000,0,0x36,0x24,Read,ACK
16.660098376000001,0,0x36,0x60,Read,NAK
16.660241692000000,0,0x36,0x07,Write,ACK
16.660360136000001,0,0x36,0xE7,Read,ACK
16.660389620000000,0,0x36,0x63,Read,NAK
16.660529298000000,0,0x36,0x08,Write,ACK
16.660646482000001,0,0x36,0x66,Read,ACK
16.660675961999999,0,0x36,0x1E,Read,NAK
16.660826247999999,0,0x36,0x09,Write,ACK
16.660941575999999,0,0x36,0x10,Read,ACK
16.660971025999999,0,0x36,0xCE,Read,NAK
16.661119066000001,0,0x36,0x0B,Write,ACK
16.661233226000000,0,0x36,0x53,Read,ACK
16.661262684000000,0,0x36,0xFD,Read,NAK
16.661403212000000,0,0x36,0x09,Write,ACK
16.661514352000001,0,0x36,0x10,Read,ACK
16.661543819999999,0,0x36,0xCE,Read,NAK
16.661690065999998,0,0x36,0x0A,Write,ACK
16.661807446000001,0,0x36,0xBD,Read,ACK
16.661836917999999,0,0x36,0xFA,Read,NAK
16.661976398000000,0,0x36,0x0B,Write,ACK
16.662100578000000,0,0x36,0x53,Read,ACK
16.662130030000000,0,0x36,0xFD,Read,NAK
16.662295876000002,0,0x36,0x0C,Write,ACK
16.662412950000000,0,0x36,0x37,Read,ACK
16.662442429999999,0,0x36,0x00,Read,NAK
16.662580750000000,0,0x36,0x0D,Write,ACK
16.662698559999999,0,0x36,0x7B,Read,ACK
16.662728036000001,0,0x36,0x5F,Read,NAK
16.662865214000000,0,0x36,0x0E,Write,ACK
16.662986879999998,0,0x36,0x24,Read,ACK
16.663016364000001,0,0x36,0x60,Read,NAK
16.663154263999999,0,0x36,0x0F,Write,ACK
16.663271739999999,0,0x36,0xE0,Read,ACK
16.663301228000002,0,0x36,0x10,Read,NAK
16.664146175999999,0,0x36,0x0B,Write,ACK
16.664298998000000,0,0x36,0x53,Read,ACK
16.664328458000000,0,0x36,0xFD,Read,NAK
16.664581471999998,0,0x36,0x09,Write,ACK
16.664699804000001,0,0x36,0x10,Read,ACK
16.664729262000002,0,0x36,0xCE,Read,NAK
16.667793058000001,0,0x36,0x10,Write,ACK
16.667917217999999,0,0x36,0x56,Read,ACK
16.667946701999998,0,0x36,0x11,Read,NAK
16.668113043999998,0,0x36,0x11,Write,ACK
16.668242297999999,0,0x36,0x3E,Read,ACK
16.668271776000001,0,0x36,0x33,Read,NAK
16.668690384000001,0,0x36,0x12,Write,ACK
16.668806121999999,0,0x36,0x00,Read,ACK
16.668835592000001,0,0x36,0x28,Read,NAK
16.668971832000000,0,0x36,0x13,Write,ACK
16.669088811999998,0,0x36,0x00,Read,ACK
16.669118281999999,0,0x36,0x5B,Read,NAK
16.669263896000000,0,0x36,0x14,Write,ACK
16.669628474000000,0,0x36,0x6D,Read,ACK
16.669657942000001,0,0x36,0x04,Read,NAK
16.669803976000001,0,0x36,0x15,Write,ACK
16.669933971999999,0,0x36,0x48,Read,ACK
16.669963458000002,0,0x36,0x01,Read,NAK
16.670101140000000,0,0x36,0x16,Write,ACK
16.670222710000001,0,0x36,0x25,Read,ACK
16.670252170000001,0,0x36,0x1E,Read,NAK
16.670401856000002,0,0x36,0x17,Write,ACK
16.670519561999999,0,0x36,0x00,Read,ACK
16.670549050000002,0,0x36,0x00,Read,NAK
16.670741002000000,0,0x36,0x18,Write,ACK
16.670861400000000,0,0x36,0x8F,Read,ACK
16.670890908000001,0,0x36,0x11,Read,NAK
16.671034528000000,0,0x36,0x19,Write,ACK
16.671151292000001,0,0x36,0x6D,Read,ACK
16.671180763999999,0,0x36,0xD5,Read,NAK
16.671324716000001,0,0x36,0x1A,Write,ACK
16.671438576000000,0,0x36,0x16,Read,ACK
16.671468055999998,0,0x36,0x1E,Read,NAK
16.671607412000000,0,0x36,0x1B,Write,ACK
16.671768751999998,0,0x36,0xBC,Read,ACK
16.671798244000001,0,0x36,0xD8,Read,NAK
16.671937398000001,0,0x36,0x1C,Write,ACK
16.672080812000001,0,0x36,0xED,Read,ACK
16.672110314000001,0,0x36,0x00,Read,NAK
16.672249054000002,0,0x36,0x1D,Write,ACK
16.674483312000000,0,0x36,0x14,Read,ACK
16.674512772000000,0,0x36,0x03,Read,NAK
16.674666622000000,0,0x36,0x1E,Write,ACK
16.674789101999998,0,0x36,0xC0,Read,ACK
16.674818601999998,0,0x36,0x08,Read,NAK
16.675324925999998,0,0x36,0x0F,Write,NAK
16.675452088000000,0,0x36,0xAA,Read,ACK
16.675481588000000,0,0x36,0x10,Read,NAK
16.679713427999999,0,0x36,0x20,Write,ACK
16.679836850000001,0,0x36,0xFF,Read,ACK
16.679866321999999,0,0x36,0xFF,Read,NAK
16.680011115999999,0,0x36,0x21,Write,ACK
16.680140187999999,0,0x36,0x00,Read,ACK
16.680169666000001,0,0x36,0x62,Read,NAK
16.680319873999998,0,0x36,0x22,Write,ACK
16.680451630000000,0,0x36,0x00,Read,ACK
16.680481103999998,0,0x36,0x16,Read,NAK
16.680721710000000,0,0x36,0x23,Write,ACK
16.680841577999999,0,0x36,0x8D,Read,ACK
16.680871088000000,0,0x36,0x11,Read,NAK
16.681025332000001,0,0x36,0x24,Write,ACK
16.681151381999999,0,0x36,0x03,Read,ACK
16.681180856000001,0,0x36,0x14,Read,NAK
16.681321147999999,0,0x36,0x25,Write,ACK
16.681436980000001,0,0x36,0x05,Read,ACK
16.681466459999999,0,0x36,0x1E,Read,NAK
16.681782995999999,0,0x36,0x26,Write,ACK
16.681906964000000,0,0x36,0x25,Read,ACK
16.681936436000001,0,0x36,0x1E,Read,NAK
16.682081940000000,0,0x36,0x27,Write,ACK
16.682204114000001,0,0x36,0x86,Read,ACK
16.682233608000001,0,0x36,0x7F,Read,NAK
16.682375875999998,0,0x36,0x28,Write,ACK
16.682495260000000,0,0x36,0x06,Read,ACK
16.682524730000001,0,0x36,0x26,Read,NAK
16.682674722000002,0,0x36,0x29,Write,ACK
16.682799289999998,0,0x36,0xA4,Read,ACK
16.682828755999999,0,0x36,0xCE,Read,NAK
16.682969492000002,0,0x36,0x2A,Write,ACK
16.683093979999999,0,0x36,0x3C,Read,ACK
16.683123444000000,0,0x36,0x04,Read,NAK
16.683268122000001,0,0x36,0x2B,Write,ACK
16.683387824000000,0,0x36,0x70,Read,ACK
16.683417282000001,0,0x36,0x38,Read,NAK
16.683561237999999,0,0x36,0x2C,Write,ACK
16.683709862000001,0,0x36,0xE1,Read,ACK
16.683739337999999,0,0x36,0xE3,Read,NAK
16.683888300000000,0,0x36,0x2D,Write,ACK
16.684008716000001,0,0x36,0x0E,Read,ACK
16.684038183999998,0,0x36,0x29,Read,NAK
16.684177450000000,0,0x36,0x2E,Write,ACK
16.684300040000000,0,0x36,0x00,Read,ACK
16.684329515999998,0,0x36,0x04,Read,NAK
16.684476388000000,0,0x36,0x37,Write,NAK
16.684598890000000,0,0x36,0x01,Read,ACK
16.684628364000002,0,0x36,0x00,Read,NAK
16.691724317999999,0,0x36,0x30,Write,ACK
16.691850144000000,0,0x36,0x04,Read,ACK
16.691879621999998,0,0x36,0x09,Read,NAK
16.692024100000001,0,0x36,0x31,Write,ACK
16.692142226000001,0,0x36,0x25,Read,ACK
16.692171704000000,0,0x36,0x08,Read,NAK
16.692312317999999,0,0x36,0x32,Write,ACK
16.692434916000000,0,0x36,0x00,Read,ACK
16.692464388000001,0,0x36,0x0D,Read,NAK
16.692606046000002,0,0x36,0x33,Write,ACK
16.692697089999999,,0x37,,Write,NAK
16.692723747999999,0,0x37,0x7F,Write,NAK
16.692753121999999,0,0x37,0x7F,Write,NAK
16.692896867999998,0,0x36,0x34,Write,ACK
16.693018106000000,0,0x36,0xEC,Read,ACK
16.693047589999999,0,0x36,0x1D,Read,NAK
16.693185496000002,0,0x36,0x35,Write,ACK
16.693304752000000,0,0x36,0x8C,Read,ACK
16.693334241999999,0,0x36,0x11,Read,NAK
16.693473608000001,0,0x36,0x36,Write,ACK
16.693592878000000,0,0x36,0x0B,Read,ACK
16.693622351999998,0,0x36,0x0E,Read,NAK
16.693764313999999,0,0x36,0x37,Write,ACK
16.693880751999998,0,0x36,0xE0,Read,ACK
16.693910263999999,0,0x36,0x05,Read,NAK
16.694049102000001,0,0x36,0x38,Write,ACK
16.694170761999999,0,0x36,0x27,Read,ACK
16.694200230000000,0,0x36,0x00,Read,NAK
16.694340111999999,0,0x36,0x39,Write,ACK
16.694458560000001,0,0x36,0x20,Read,ACK
16.694488031999999,0,0x36,0x15,Read,NAK
16.694626044000000,0,0x36,0x3A,Write,ACK
16.694742395999999,0,0x36,0x54,Read,ACK
16.694771876000001,0,0x36,0x7D,Read,NAK
16.694916442000000,0,0x36,0x3B,Write,ACK
16.695034558000000,0,0x36,0x53,Read,ACK
16.695064028000001,0,0x36,0xFD,Read,NAK
16.695205898000001,0,0x36,0x3C,Write,ACK
16.695332136000001,0,0x36,0x80,Read,ACK
16.695361632000001,0,0x36,0x16,Read,NAK
16.695507966000001,0,0x36,0x3D,Write,ACK
16.695625979999999,0,0x36,0x00,Read,ACK
16.695655458000001,0,0x36,0x10,Read,NAK
16.695809004000001,0,0x36,0x3E,Write,ACK
16.695933272000001,0,0x36,0x32,Read,ACK
16.695962741999999,0,0x36,0x00,Read,NAK
16.696124707999999,0,0x36,0x3F,Write,ACK
16.696253666000000,0,0x36,0x00,Read,ACK
16.696283122000001,0,0x36,0xE0,Read,NAK
16.703745317999999,0,0x36,0x40,Write,ACK
16.703876346000001,0,0x36,0xFC,Read,ACK
16.703905850000002,0,0x36,0x07,Read,NAK
16.704064570000000,0,0x36,0x41,Write,ACK
16.704185106000001,0,0x36,0x00,Read,ACK
16.704214575999998,0,0x36,0x00,Read,NAK
16.704353936000000,0,0x36,0x42,Write,ACK
16.704471953999999,0,0x36,0x00,Read,ACK
16.704501432000001,0,0x36,0x0B,Read,NAK
16.704645476000000,0,0x36,0x43,Write,ACK
16.704767144000002,0,0x36,0x04,Read,ACK
16.704796628000000,0,0x36,0x0E,Read,NAK
16.704937862000001,0,0x36,0x44,Write,ACK
16.705056305999999,0,0x36,0x60,Read,ACK
16.705085770000000,0,0x36,0xD6,Read,NAK
16.705229308000000,0,0x36,0x45,Write,ACK
16.705349307999999,0,0x36,0x63,Read,ACK
16.705378788000001,0,0x36,0x04,Read,NAK
16.705532317999999,0,0x36,0x46,Write,ACK
16.705651585999998,0,0x36,0x00,Read,ACK
16.705681064000000,0,0x36,0x32,Read,NAK
16.705819691999999,0,0x36,0x47,Write,ACK
16.705940821999999,0,0x36,0x8D,Read,ACK
16.705970298000000,0,0x36,0xFF,Read,NAK
16.706108625999999,0,0x36,0x48,Write,ACK
16.706226743999999,0,0x36,0xEE,Read,ACK
16.706256236000002,0,0x36,0x5F,Read,NAK
16.706399344000001,0,0x36,0x49,Write,ACK
16.706520279999999,0,0x36,0x40,Read,ACK
16.706549752000001,0,0x36,0x22,Read,NAK
16.706691412000001,0,0x36,0x4A,Write,ACK
16.706813692000001,0,0x36,0xF4,Read,ACK
16.706843190000001,0,0x36,0x10,Read,NAK
16.706982541999999,0,0x36,0x4B,Write,ACK
16.707100029999999,0,0x36,0xD7,Read,ACK
16.707129525999999,0,0x36,0x08,Read,NAK
16.707272322000001,0,0x36,0x4C,Write,ACK
16.707390839999999,0,0x36,0xFF,Read,ACK
16.707420326000001,0,0x36,0xFF,Read,NAK
16.707558658000000,0,0x36,0x4D,Write,ACK
16.707696144000000,0,0x36,0xFF,Read,ACK
16.707725614000001,0,0x36,0xFF,Read,NAK
16.707871871999998,0,0x36,0x4E,Write,ACK
16.707992281999999,0,0x36,0x76,Read,ACK
16.708021760000001,0,0x36,0x3B,Read,NAK
16.708162059999999,0,0x36,0x4F,Write,ACK
16.708280586000001,0,0x36,0x8D,Read,ACK
16.708310082000001,0,0x36,0x11,Read,NAK
16.715782566000001,0,0x36,0xB0,Write,ACK
16.716162760000000,0,0x36,0x00,Read,ACK
16.716192236000001,0,0x36,0x00,Read,NAK
16.716335226000002,0,0x36,0xB0,Write,NAK
16.716463892000000,0,0x36,0x41,Read,ACK
16.716493373999999,0,0x36,0x67,Read,ACK
16.716645635999999,0,0x36,0xB2,Write,ACK
16.716771278000000,0,0x36,0x01,Read,ACK
16.716800748000001,0,0x36,0x00,Read,NAK
16.716942280000001,0,0x36,0xB3,Write,ACK
16.717061564000002,0,0x36,0x3D,Read,ACK
16.717091044000000,0,0x36,0x2B,Read,NAK
16.717233409999999,0,0x36,0xB4,Write,ACK
16.717352582000000,0,0x36,0x80,Read,ACK
16.717382063999999,0,0x36,0x7F,Read,NAK
16.717528489999999,0,0x36,0xB5,Write,ACK
16.717644025999999,0,0x36,0x05,Read,ACK
16.717673512000001,0,0x36,0x00,Read,NAK
16.717810254000000,0,0x36,0xB6,Write,ACK
16.717925262000001,0,0x36,0x56,Read,ACK
16.717954740000000,0,0x36,0x13,Read,NAK
16.718101271999998,0,0x36,0xB7,Write,ACK
16.718219924000000,0,0x36,0x00,Read,ACK
16.718249411999999,0,0x36,0x06,Read,NAK
16.718389806000001,0,0x36,0xB8,Write,ACK
16.718507710000001,0,0x36,0x00,Read,ACK
16.718537208000001,0,0x36,0x00,Read,NAK
16.718678015999998,0,0x36,0xB9,Write,ACK
16.718796672000000,0,0x36,0x6B,Read,ACK
16.718826150000002,0,0x36,0x00,Read,NAK
16.718972268000002,0,0x36,0xBA,Write,ACK
16.719097174000002,0,0x36,0x0C,Read,ACK
16.719126660000001,0,0x36,0x09,Read,NAK
16.719264643999999,0,0x36,0xBB,Write,ACK
16.719382784000000,0,0x36,0x55,Read,ACK
16.719412267999999,0,0x36,0x00,Read,NAK
16.719549846000000,0,0x36,0xBC,Write,ACK
16.719671512000001,0,0x36,0xAC,Read,ACK
16.719701000000001,0,0x36,0x13,Read,NAK
16.719844316000000,0,0x36,0xBD,Write,ACK
16.719964212000001,0,0x36,0x04,Read,ACK
16.719993704000000,0,0x36,0x02,Read,NAK
16.720135438000000,0,0x36,0xBE,Write,ACK
16.720253060000001,0,0x36,0x00,Read,ACK
16.720282535999999,0,0x36,0x00,Read,NAK
16.720426979999999,0,0x36,0xBF,Write,ACK
16.720545951999998,0,0x36,0x00,Read,ACK
16.720575434000001,0,0x36,0x00,Read,NAK
16.727717208000001,0,0x36,0xD0,Write,ACK
16.727838242000001,0,0x36,0xCB,Read,ACK
16.727867742000001,0,0x36,0x0E,Read,NAK
16.728005434000000,0,0x1B,0x68,Write,NAK
16.728127107999999,0,0x36,0x00,Read,ACK
16.728156596000002,0,0x36,0x00,Read,NAK
16.728295310000000,0,0x36,0xD2,Write,ACK
16.728414590000000,0,0x36,0x00,Read,ACK
16.728444058000001,0,0x36,0x00,Read,NAK
16.728586016000001,0,0x36,0xD3,Write,ACK
16.728704594000000,0,0x36,0x00,Read,ACK
16.728734048000000,0,0x36,0x00,Read,NAK
16.728880268000001,0,0x36,0xD4,Write,ACK
16.728997792000001,0,0x36,0x00,Read,ACK
16.729027267999999,0,0x36,0x00,Read,NAK
16.729167344000000,0,0x36,0xD5,Write,ACK
16.729338083999998,0,0x36,0x00,Read,ACK
16.729367554000000,0,0x36,0x00,Read,NAK
16.729509921999998,0,0x36,0xD6,Write,ACK
16.729628492000000,0,0x36,0x00,Read,ACK
16.729657954000000,0,0x36,0x00,Read,NAK
16.729797405999999,0,0x36,0xD7,Write,ACK
16.729915762000001,0,0x36,0x00,Read,ACK
16.729945248000000,0,0x36,0x00,Read,NAK
16.730084789999999,0,0x36,0xD8,Write,ACK
16.730202704000000,0,0x36,0x00,Read,ACK
16.730232182000002,0,0x36,0x00,Read,NAK
16.730371645999998,0,0x36,0xD9,Write,ACK
16.730491657999998,0,0x36,0x00,Read,ACK
16.730517804000002,0,0x36,0x00,Read,ACK
16.730661009999999,0,0x36,0xDA,Write,ACK
16.730780599999999,0,0x36,0x00,Read,ACK
16.730810080000001,0,0x36,0x00,Read,NAK
16.730951294000000,0,0x36,0xDB,Write,ACK
16.731068822000001,0,0x36,0x10,Read,ACK
16.731098299999999,0,0x36,0x00,Read,NAK
16.731238785999999,0,0x36,0xDC,Write,ACK
16.731357236000001,0,0x36,0x1B,Read,ACK
16.731386728000000,0,0x36,0x00,Read,NAK
16.731524404000002,0,0x36,0xDD,Write,ACK
16.731660231999999,0,0x36,0xFF,Read,ACK
16.731689702000001,0,0x36,0xFF,Read,NAK
16.731836152000000,0,0x36,0xDE,Write,ACK
16.731993754000001,0,0x36,0x24,Read,ACK
16.732023238000000,0,0x36,0x60,Read,NAK
16.732162284000001,0,0x36,0xDF,Write,ACK
16.732284660000001,0,0x36,0xC5,Read,ACK
16.732310842000000,0,0x36,0x08,Read,ACK
16.739708302000000,0,0x36,0xE0,Write,ACK
16.739825904000000,0,0x36,0xD0,Read,ACK
16.739855406000000,0,0x36,0x12,Read,NAK
16.740001316000001,0,0x36,0xE1,Write,ACK
16.740130698000002,0,0x36,0x0A,Read,ACK
16.740160169999999,0,0x36,0x00,Read,NAK
16.740314722000001,0,0x36,0xE2,Write,ACK
16.740452858000001,0,0x36,0x00,Read,ACK
16.740482314000001,0,0x36,0x00,Read,ACK
16.740629611999999,0,0x36,0xE3,Write,ACK
16.740915441999999,0,0x36,0x00,Read,ACK
16.740944914000000,0,0x36,0x64,Read,NAK
16.741085512000002,0,0x36,0xE4,Write,ACK
16.741231983999999,0,0x36,0x1B,Read,ACK
16.741261460000000,0,0x36,0x00,Read,NAK
16.742871153999999,0,0x36,0xE5,Write,ACK
16.742988145999998,0,0x36,0x00,Read,ACK
16.743017622000000,0,0x36,0x00,Read,NAK
16.743156010000000,0,0x36,0xE6,Write,ACK
16.743271224000001,0,0x36,0xB8,Read,ACK
16.743300718000000,0,0x36,0x02,Read,NAK
16.743450899999999,0,0x36,0xE7,Write,ACK
16.743582799999999,0,0x36,0x02,Read,ACK
16.743612268000000,0,0x36,0x00,Read,NAK
16.743768595999999,0,0x36,0xE8,Write,ACK
16.743887237999999,0,0x36,0xBE,Read,ACK
16.743916733999999,0,0x36,0x4A,Read,NAK
16.744068471999999,0,0x36,0xE9,Write,ACK
16.744197545999999,0,0x36,0x00,Read,ACK
16.744227024000001,0,0x36,0x00,Read,NAK
16.744371365999999,0,0x36,0xEA,Write,ACK
16.744487928000002,0,0x36,0x90,Read,ACK
16.744517422000001,0,0x36,0x46,Read,NAK
16.744661044000001,0,0x36,0xEB,Write,ACK
16.744781794000001,0,0x36,0x00,Read,ACK
16.744811261999999,0,0x36,0x00,Read,NAK
16.744958631999999,0,0x36,0xEC,Write,ACK
16.745075834000001,0,0x36,0x00,Read,ACK
16.745105316000000,0,0x36,0x40,Read,NAK
16.745374240000000,0,0x36,0xED,Write,ACK
16.745492806000001,0,0x36,0x00,Read,ACK
16.745522240000000,0,0x36,0x00,Read,NAK
16.745673384000000,0,0x36,0xEE,Write,ACK
16.746002976000000,0,0x36,0x10,Read,ACK
16.746032425999999,0,0x36,0xA2,Read,NAK
16.746181799999999,0,0x36,0xEF,Write,ACK
16.746299006000001,0,0x36,0x20,Read,ACK
16.746328488000000,0,0x36,0x08,Read,NAK
16.753275546000001,0,0x36,0xF0,Write,ACK
16.753401176000001,0,0x36,0xFF,Read,ACK
16.753430651999999,0,0x36,0xFF,Read,NAK
16.753574188000002,0,0x36,0xF1,Write,ACK
16.753934999999998,0,0x36,0xFF,Read,ACK
16.753964484000001,0,0x36,0xFF,Read,NAK
16.754111766000001,0,0x36,0xF2,Write,ACK
16.754231753999999,0,0x36,0xFF,Read,ACK
16.754261240000002,0,0x36,0xFF,Read,NAK
16.754412272000000,0,0x36,0xF3,Write,ACK
16.754530077999998,0,0x36,0xFF,Read,ACK
16.754559558000000,0,0x36,0xFF,Read,NAK
16.754700066000002,0,0x36,0xF4,Write,ACK
16.754831616000001,0,0x36,0xBA,Read,ACK
16.754861110000000,0,0x36,0x20,Read,NAK
16.754998583999999,0,0x36,0xF5,Write,ACK
16.755117655999999,0,0x36,0x00,Read,ACK
16.755147132000001,0,0x36,0x00,Read,NAK
16.755307426000002,0,0x36,0xF6,Write,ACK
16.755619916000001,0,0x36,0x00,Read,ACK
16.755649399999999,0,0x36,0x00,Read,NAK
16.755791668000001,0,0x36,0xF7,Write,ACK
16.755954897999999,0,0x36,0x26,Read,ACK
16.755984364000000,0,0x36,0xEE,Read,NAK
16.756606825999999,0,0x36,0xF8,Write,ACK
16.756724521999999,0,0x36,0xC3,Read,ACK
16.756754030000000,0,0x36,0x3F,Read,NAK
16.757088050000000,0,0x36,0xF9,Write,ACK
16.760211642000002,0,0x36,0x3A,Read,ACK
16.760241122000000,0,0x36,0x58,Read,NAK
16.760390994000002,0,0x36,0xFA,Write,ACK
16.760514241999999,0,0x36,0x62,Read,ACK
16.760543695999999,0,0x36,0xFE,Read,NAK
16.760683795999999,0,0x36,0xFB,Write,ACK
16.760802867999999,0,0x36,0x57,Read,ACK
16.760832330000000,0,0x36,0xD6,Read,NAK
16.760973977999999,0,0x36,0xFC,Write,ACK
16.761091705999998,0,0x36,0x20,Read,ACK
16.761121171999999,0,0x36,0x00,Read,NAK
16.761261682000001,0,0x36,0xFD,Write,ACK
16.761383248000001,0,0x36,0x10,Read,ACK
16.761412732000000,0,0x36,0x29,Read,NAK
16.761553116000002,0,0x36,0xFE,Write,ACK
16.761672409999999,0,0x36,0x10,Read,ACK
16.761701861999999,0,0x36,0xCE,Read,NAK
16.761843832000000,0,0x36,0xFF,Write,ACK
16.761962998000001,0,0x36,0xEE,Read,ACK
16.761992486000000,0,0x36,0x5F,Read,NAK
16.767739662000000,0,0x36,0x38,Write,ACK
16.767885616000001,0,0x36,0x27,Read,ACK
16.767915083999998,0,0x36,0x00,Read,NAK
16.768066328000000,0,0x36,0x39,Write,ACK
16.768186946000000,0,0x36,0x20,Read,ACK
16.768216414000001,0,0x36,0x15,Read,NAK
16.768358066000001,0,0x36,0x18,Write,ACK
16.768478062000000,0,0x36,0x8F,Read,ACK
16.768507553999999,0,0x36,0x11,Read,NAK
16.768648888000001,0,0x36,0x23,Write,ACK
16.768767526000001,0,0x36,0x8D,Read,ACK
16.768797010000000,0,0x36,0x11,Read,NAK
16.768936591999999,0,0x36,0x35,Write,ACK
16.769063650000000,0,0x36,0x8C,Read,ACK
16.769093137999999,0,0x36,0x11,Read,NAK
16.769236864000000,0,0x36,0x43,Write,ACK
16.769358334000000,0,0x36,0x04,Read,ACK
16.769387806000001,0,0x36,0x0E,Read,NAK
16.769529364000000,0,0x36,0x4B,Write,ACK
16.769675589999999,0,0x36,0xD7,Read,ACK
16.769705095999999,0,0x36,0x08,Read,NAK
16.769858604000000,0,0x36,0xB1,Write,ACK
16.769980378000000,0,0x36,0x41,Read,ACK
16.770009865999999,0,0x36,0x66,Read,NAK
16.770153264000001,0,0x36,0xD0,Write,ACK
16.770278275999999,0,0x36,0xCB,Read,ACK
16.770307767999999,0,0x36,0x0E,Read,NAK
16.770451280000000,0,0x36,0xB3,Write,ACK
16.770576500000001,0,0x36,0x3D,Read,ACK
16.770605979999999,0,0x36,0x2B,Read,NAK
16.770747210000000,0,0x36,0x4D,Write,ACK
16.770869279999999,0,0x36,0xFF,Read,ACK
16.770898765999998,0,0x36,0xFF,Read,NAK
16.771079486000001,0,0x36,0x0A,Write,ACK
16.771202590000001,0,0x36,0xBD,Read,ACK
16.771232063999999,0,0x36,0xFA,Read,NAK
16.771384575999999,0,0x36,0x0B,Write,ACK
16.771506863999999,0,0x36,0x48,Read,ACK
16.771536323999999,0,0x36,0xFD,Read,NAK
16.771678930000000,0,0x36,0x09,Write,ACK
16.771799137999999,0,0x36,0x10,Read,ACK
16.771828599999999,0,0x36,0xCE,Read,NAK
16.771985268000002,0,0x36,0x4B,Write,ACK
16.772105360000001,0,0x36,0xD7,Read,ACK
16.772134835999999,0,0x36,0x08,Read,NAK
16.772280567999999,0,0x36,0x43,Write,ACK
16.772398897999999,0,0x36,0x04,Read,ACK
16.772428368000000,0,0x36,0x0E,Read,NAK
16.799800926000000,0,0x36,0x08,Write,ACK
16.799830692000000,0,0x36,0x80,Write,ACK
16.799860502000001,0,0x36,0x1F,Write,ACK
16.800019446000000,0,0x36,0x06,Write,ACK
16.800137476000000,0,0x36,0x24,Read,ACK
16.800166950000001,0,0x36,0x60,Read,NAK
16.800308504000000,0,0x36,0x09,Write,ACK
16.800426737999999,0,0x36,0x10,Read,ACK
16.800456191999999,0,0x36,0xCE,Read,NAK
16.800596718000001,0,0x36,0x0B,Write,ACK
16.800713170000002,0,0x36,0x48,Read,ACK
16.800742622000001,0,0x36,0xFD,Read,NAK
16.800881279999999,0,0x36,0x09,Write,ACK
16.801000032000001,0,0x36,0x10,Read,ACK
16.801029482000001,0,0x36,0xCE,Read,NAK
16.801225332000001,0,0x36,0x06,Write,ACK
16.801346362000000,0,0x36,0x24,Read,ACK
16.801375835999998,0,0x36,0x60,Read,NAK
16.801525210000001,0,0x36,0x05,Write,ACK
16.801644358000001,0,0x36,0xDE,Read,ACK
16.801673850000000,0,0x36,0x10,Read,NAK
16.801812280000000,0,0x36,0x4D,Write,ACK
16.801929128000001,0,0x36,0xFF,Read,ACK
16.801958605999999,0,0x36,0xFF,Read,NAK
16.802195151999999,0,0x69,0xBD,Write,ACK
16.802315262000000,0,0x69,0xEC,Read,NAK
16.802457016000002,0,0x69,0xBD,Write,ACK
16.802486808000001,0,0x69,0xED,Write,ACK
16.802624607999999,0,0x69,0xB4,Write,ACK
16.802743278000001,0,0x69,0x31,Read,NAK
16.802892421999999,0,0x69,0xB3,Write,ACK
16.803012731999999,0,0x69,0xE0,Read,NAK
16.803161156000002,0,0x69,0xB4,Write,ACK
16.803281370000001,0,0x69,0x31,Read,NAK
16.803426332000001,0,0x69,0xB3,Write,ACK
16.803544467999998,0,0x69,0xE0,Read,NAK
16.803689030000001,0,0x69,0xB4,Write,ACK
16.803805818000001,0,0x69,0x31,Read,NAK
16.803953384000000,0,0x69,0xB7,Write,ACK
16.804074142000001,0,0x69,0x15,Read,NAK
16.804218681999998,0,0x36,0xD0,Write,ACK
16.804337858000000,0,0x36,0xCB,Read,ACK
16.804367350000000,0,0x36,0x0E,Read,NAK
16.804511070000000,0,0x36,0xB3,Write,ACK
16.804629093999999,0,0x36,0x3D,Read,ACK
16.804658578000002,0,0x36,0x2B,Read,NAK
16.804824490000001,0,0x69,0xB1,Write,ACK
16.804954510000002,0,0x69,0x7A,Read,NAK
16.805098332000000,0,0x69,0xB2,Write,ACK
16.805219166000001,0,0x69,0xDF,Read,NAK
16.805360929999999,0,0x69,0xB3,Write,ACK
16.805482598000001,0,0x69,0xE0,Read,ACK
16.805627252000001,0,0x69,0xB4,Write,ACK
16.805744871999998,0,0x69,0x31,Read,NAK
16.805886825999998,0,0x69,0xB5,Write,ACK
16.806004439999999,0,0x69,0x00,Read,NAK
16.806162864000001,0,0x69,0xB6,Write,ACK
16.806283482000001,0,0x69,0xFF,Read,NAK
16.806425441999998,0,0x69,0xB7,Write,ACK
16.806543904000002,0,0x69,0x15,Read,NAK
16.806684487999998,0,0x69,0xB8,Write,ACK
16.806802743999999,0,0x69,0x38,Read,NAK
16.806943449999999,0,0x69,0xB9,Write,ACK
16.807061774000001,0,0x69,0x4B,Read,NAK
16.807202598000000,0,0x69,0xBA,Write,ACK
16.807321647999999,0,0x69,0x9F,Read,NAK
16.807462160000000,0,0x69,0xBB,Write,ACK
16.807581652000000,0,0x69,0x16,Read,NAK
16.807957013999999,0,0x69,0xBC,Write,ACK
16.808078389999999,0,0x69,0x60,Read,NAK
16.808219718000000,0,0x69,0xBD,Write,ACK
16.808337003999998,0,0x69,0xEC,Read,NAK
16.808477935999999,0,0x69,0xBE,Write,ACK
16.808595034000000,0,0x69,0x34,Read,NAK
16.808734260000001,0,0x69,0xBF,Write,ACK
16.808854078000000,0,0x69,0x00,Read,NAK
16.809005392000000,0,0x69,0xC0,Write,ACK
16.809121852000001,0,0x69,0x92,Read,NAK
16.809260798000000,0,0x69,0xC1,Write,ACK
16.809377072000000,0,0x69,0x10,Read,NAK
16.809515988000001,0,0x69,0xC2,Write,ACK
16.809634236000001,0,0x69,0x00,Read,NAK
16.809773274000001,0,0x69,0xC3,Write,ACK
16.809889942000002,0,0x69,0x68,Read,NAK
16.810039192000001,0,0x69,0xB7,Write,ACK
16.810155882000000,0,0x69,0x15,Read,NAK
16.810293869999999,0,0x69,0xBC,Write,ACK
16.810410240000000,0,0x69,0x60,Read,NAK
16.810686363999999,0,0x36,0x0A,Write,ACK
16.810804367999999,0,0x36,0xBD,Read,ACK
16.810833838000001,0,0x36,0xFA,Read,NAK
16.810989899999999,0,0x36,0x09,Write,ACK
16.811112183999999,0,0x36,0x10,Read,ACK
16.811141643999999,0,0x36,0xCE,Read,NAK
16.811297467999999,0,0x36,0x19,Write,ACK
16.811413724000001,0,0x36,0x66,Read,ACK
16.811443184000002,0,0x36,0xD5,Read,NAK
16.811595277999999,0,0x36,0x0B,Write,ACK
16.811761008000001,0,0x36,0x48,Read,ACK
16.811790458000001,0,0x36,0xFD,Read,NAK
16.811945552000001,0,0x36,0x09,Write,ACK
16.812059531999999,0,0x36,0x10,Read,ACK
16.812088977999998,0,0x36,0xCE,Read,NAK
16.812256164000001,0,0x36,0xFB,Write,ACK
16.812380342000001,0,0x36,0x57,Read,ACK
16.812409790000000,0,0x36,0xD6,Read,NAK
16.812575748000000,0,0x36,0x00,Write,ACK
16.812700511999999,0,0x36,0x80,Read,ACK
16.812730001999999,0,0x36,0x00,Read,NAK
16.812892586000000,0,0x36,0x43,Write,ACK
16.813012260000001,0,0x36,0xE6,Read,ACK
16.813041754000000,0,0x36,0x0B,Read,NAK
16.813199654000002,0,0x36,0x4B,Write,ACK
16.813319121999999,0,0x36,0xE3,Read,ACK
16.813348617999999,0,0x36,0x08,Read,NAK
16.813511838000000,0,0x36,0x01,Write,ACK
16.813633274000001,0,0x36,0xA0,Read,ACK
16.813662716000000,0,0x36,0xFF,Read,NAK
16.813806916000001,0,0x36,0x02,Write,ACK
16.813928256000001,0,0x36,0x80,Read,ACK
16.813957758000001,0,0x36,0x7F,Read,NAK
16.814101896000000,0,0x36,0x03,Write,ACK
16.814223345999999,0,0x36,0x01,Read,ACK
16.814252824000000,0,0x36,0xFF,Read,NAK
16.814397715999998,0,0x36,0x04,Write,ACK
16.814518860000000,0,0x36,0x00,Read,ACK
16.814548334000001,0,0x36,0x19,Read,NAK
16.814695204000000,0,0x36,0x05,Write,ACK
16.814816436000001,0,0x36,0xDE,Read,ACK
16.814845936000001,0,0x36,0x10,Read,NAK
16.814989250000000,0,0x36,0x06,Write,ACK
16.815110495999999,0,0x36,0x24,Read,ACK
16.815139980000001,0,0x36,0x60,Read,NAK
16.815283397999998,0,0x36,0x07,Write,ACK
16.815404525999998,0,0x36,0xE7,Read,ACK
16.815434014000001,0,0x36,0x63,Read,NAK
16.815577436000002,0,0x36,0x08,Write,ACK
16.815697210000000,0,0x36,0x80,Read,ACK
16.815726710000000,0,0x36,0x1F,Read,NAK
16.815867424000000,0,0x36,0x09,Write,ACK
16.815993248000002,0,0x36,0x10,Read,ACK
16.816022722000000,0,0x36,0xCE,Read,NAK
16.816177402000001,0,0x36,0x0A,Write,ACK
16.816299271999998,0,0x36,0xBD,Read,ACK
16.816328748000000,0,0x36,0xFA,Read,NAK
16.816475608000001,0,0x36,0x0B,Write,ACK
16.816604156000000,0,0x36,0x48,Read,ACK
16.816633628000002,0,0x36,0xFD,Read,NAK
16.816777798000000,0,0x36,0x0C,Write,ACK
16.816899994000000,0,0x36,0x38,Read,ACK
16.816929472000002,0,0x36,0x00,Read,NAK
16.817074240000000,0,0x36,0x0D,Write,ACK
16.817199758000001,0,0x36,0x7B,Read,ACK
16.817229229999999,0,0x36,0x5F,Read,NAK
16.817373900000000,0,0x36,0x0E,Write,ACK
16.817495894000000,0,0x36,0x24,Read,ACK
16.817525364000002,0,0x36,0x60,Read,NAK
16.817670342000000,0,0x36,0x0F,Write,ACK
16.817792111999999,0,0x36,0xE0,Read,ACK
16.817818259999999,0,0x36,0x08,Read,ACK
16.823709288000000,0,0x36,0x10,Write,ACK
16.823804708000001,,0x36,,Read,NAK
16.823831372000001,0,0x36,0x2A,Read,NAK
16.823860738000000,0,0x36,0x08,Read,NAK
16.824010940000001,0,0x36,0x11,Write,ACK
16.824135834000000,0,0x36,0x05,Read,ACK
16.824165308000001,0,0x36,0x31,Read,NAK
16.824306851999999,0,0x36,0x12,Write,ACK
16.824424982000000,0,0x36,0x00,Read,ACK
16.824454465999999,0,0x36,0x28,Read,NAK
16.824592979999998,0,0x36,0x13,Write,ACK
16.824710807999999,0,0x36,0x00,Read,ACK
16.824740274000000,0,0x36,0x5B,Read,NAK
16.824878697999999,0,0x36,0x14,Write,ACK
16.824996509999998,0,0x36,0x6D,Read,ACK
16.825025998000001,0,0x36,0x04,Read,NAK
16.825163797999998,0,0x36,0x15,Write,ACK
16.825281188000002,0,0x36,0x48,Read,ACK
16.825310657999999,0,0x36,0x01,Read,NAK
16.825445122000001,0,0x37,0x0B,Write,ACK
16.825585746000002,0,0x36,0x27,Read,ACK
16.825611894000001,0,0x36,0x0F,Read,ACK
16.825765100000002,0,0x36,0x17,Write,ACK
16.825887823999999,0,0x36,0x00,Read,ACK
16.825917292000000,0,0x36,0x00,Read,NAK
16.826062491999998,0,0x36,0x18,Write,ACK
16.826184554000001,0,0x36,0x8F,Read,NAK
16.826210713999998,0,0x36,0x08,Read,NAK
16.826358934000002,0,0x36,0x19,Write,ACK
16.826481006000002,0,0x36,0x66,Read,ACK
16.826510473999999,0,0x36,0xD5,Read,NAK
16.826655366000001,0,0x36,0x1A,Write,ACK
16.826777667999998,0,0x36,0x16,Read,ACK
16.826803817999998,0,0x36,0x0F,Read,NAK
16.826951714000000,0,0x36,0x1B,Write,ACK
16.827074086000000,0,0x36,0xBC,Read,ACK
16.827103573999999,0,0x36,0xD8,Read,NAK
16.827249611999999,0,0x36,0x1C,Write,ACK
16.827371981999999,0,0x36,0xED,Read,ACK
16.827401492000000,0,0x36,0x00,Read,NAK
16.827546466000001,0,0x36,0x1D,Write,ACK
16.827733758000001,0,0x36,0x14,Read,ACK
16.827763224000002,0,0x36,0x03,Read,NAK
16.827920943999999,0,0x36,0x1E,Write,ACK
16.828050178000002,0,0x36,0xC0,Read,ACK
16.828079676000002,0,0x36,0x08,Read,NAK
16.828234028000001,0,0x36,0x1F,Write,ACK
16.828362554000002,0,0x36,0xA9,Read,ACK
16.828392032000000,0,0x36,0x10,Read,NAK
16.835739539999999,0,0x36,0x20,Write,ACK
16.835901614000001,0,0x36,0xFF,Read,ACK
16.835931093999999,0,0x36,0xFF,Read,NAK
16.836105677999999,0,0x36,0x21,Write,ACK
16.836241084000001,0,0x36,0x00,Read,ACK
16.836270563999999,0,0x36,0x62,Read,NAK
16.836431701999999,0,0x36,0x22,Write,ACK
16.836567842000001,0,0x36,0x00,Read,ACK
16.836597309999998,0,0x36,0x16,Read,NAK
16.836761778000000,0,0x36,0x23,Write,ACK
16.836896350000000,0,0x36,0x8D,Read,ACK
16.836925837999999,0,0x36,0x11,Read,NAK
16.837086756000001,0,0x36,0x24,Write,ACK
16.837221551999999,0,0x36,0x03,Read,ACK
16.837251040000002,0,0x36,0x14,Read,NAK
16.837412472000000,0,0x36,0x25,Write,ACK
16.837546526000001,0,0x36,0x05,Read,ACK
16.837576007999999,0,0x36,0x1E,Read,NAK
16.837737658000002,0,0x36,0x26,Write,ACK
16.837871415999999,0,0x36,0x25,Read,ACK
16.837900879999999,0,0x36,0x1E,Read,NAK
16.838061608000000,0,0x36,0x27,Write,ACK
16.838195123999999,0,0x36,0x86,Read,ACK
16.838224627999999,0,0x36,0x7F,Read,NAK
16.838388880000000,0,0x36,0x28,Write,ACK
16.838523045999999,0,0x36,0x06,Read,ACK
16.838552543999999,0,0x36,0x26,Read,NAK
16.838714062000001,0,0x36,0x29,Write,ACK
16.838849268000001,0,0x36,0xA4,Read,ACK
16.838878739999998,0,0x36,0xCE,Read,NAK
16.839042167999999,0,0x36,0x2A,Write,ACK
16.839178839999999,0,0x36,0x3C,Read,ACK
16.839208320000001,0,0x36,0x04,Read,NAK
16.839372256000001,0,0x36,0x2B,Write,ACK
16.839508594000002,0,0x36,0x70,Read,ACK
16.839538095999998,0,0x36,0x38,Read,NAK
16.839716295999999,0,0x36,0x2C,Write,ACK
16.839877220000002,0,0x36,0xE1,Read,ACK
16.839906698000000,0,0x36,0xE3,Read,NAK
16.840065246000002,0,0x36,0x2D,Write,ACK
16.840205441999998,0,0x36,0x0E,Read,ACK
16.840234930000001,0,0x36,0x29,Read,NAK
16.840394792000001,0,0x36,0x2E,Write,ACK
16.840527814000001,0,0x36,0x00,Read,ACK
16.840557296000000,0,0x36,0x04,Read,NAK
16.840725725999999,0,0x36,0x2F,Write,ACK
16.840863842000001,0,0x36,0x01,Read,ACK
16.840893324000000,0,0x36,0x00,Read,NAK
16.847746898000000,0,0x36,0x30,Write,ACK
16.848133870000002,0,0x36,0x04,Read,ACK
16.848163337999999,0,0x36,0x09,Read,NAK
16.848343128000000,0,0x36,0x31,Write,ACK
16.848490097999999,0,0x36,0x25,Read,ACK
16.848519562000000,0,0x36,0x08,Read,NAK
16.848697452000000,0,0x36,0x32,Write,ACK
16.848841432000000,0,0x36,0x00,Read,ACK
16.848870922000000,0,0x36,0x0D,Read,NAK
16.849048602000000,0,0x36,0x33,Write,ACK
16.849193064000001,0,0x36,0xFF,Read,ACK
16.849222529999999,0,0x36,0xFF,Read,NAK
16.849398478000001,0,0x36,0x34,Write,ACK
16.849542108000001,0,0x36,0xEC,Read,ACK
16.849571600000001,0,0x36,0x1D,Read,NAK
16.849747422000000,0,0x36,0x35,Write,ACK
16.849891245999999,0,0x36,0x8C,Read,ACK
16.849920745999999,0,0x36,0x11,Read,NAK
16.850096457999999,0,0x36,0x36,Write,ACK
16.850240096000000,0,0x36,0x0B,Read,ACK
16.850269573999999,0,0x36,0x0E,Read,NAK
16.850445080000000,0,0x36,0x37,Write,ACK
16.850588080000001,0,0x36,0xE0,Read,ACK
16.850617576000001,0,0x36,0x05,Read,NAK
16.850793299999999,0,0x36,0x38,Write,ACK
16.850933269999999,0,0x36,0x13,Read,NAK
16.850962561999999,0,0x36,0x00,Read,ACK
16.851141395999999,0,0x36,0x39,Write,ACK
16.851284840000002,0,0x36,0x20,Read,ACK
16.851314299999999,0,0x36,0x15,Read,NAK
16.851489405999999,0,0x36,0x3A,Write,ACK
16.851666789999999,0,0x36,0x54,Read,ACK
16.851696270000001,0,0x36,0x7D,Read,NAK
16.851874592000001,0,0x36,0x3B,Write,ACK
16.852018134000001,0,0x36,0x48,Read,ACK
16.852047580000001,0,0x36,0xFD,Read,NAK
16.852223418000001,0,0x36,0x3C,Write,ACK
16.852366942000000,0,0x36,0x80,Read,ACK
16.852396427999999,0,0x36,0x16,Read,NAK
16.852572469999998,0,0x36,0x3D,Write,ACK
16.852716002000001,0,0x36,0x00,Read,ACK
16.852745492000000,0,0x36,0x10,Read,NAK
16.852921296000002,0,0x36,0x3E,Write,ACK
16.853065054000002,0,0x36,0x33,Read,ACK
16.853094523999999,0,0x36,0x00,Read,NAK
16.853268880000002,0,0x36,0x3F,Write,ACK
16.853412326000001,0,0x36,0x00,Read,ACK
16.853441786000001,0,0x36,0xE0,Read,NAK
16.859795704000000,0,0x36,0x40,Write,ACK
16.859971101999999,0,0x36,0xFC,Read,ACK
16.860000584000002,0,0x36,0x07,Read,NAK
16.860193175999999,0,0x36,0x40,Write,NAK
16.860348170000002,0,0x36,0x00,Read,ACK
16.860377646000000,0,0x36,0x00,Read,NAK
16.860567754000002,0,0x36,0x42,Write,ACK
16.860727923999999,0,0x36,0x00,Read,ACK
16.860757419999999,0,0x36,0x0B,Read,NAK
16.860946466000001,0,0x36,0x43,Write,ACK
16.861099142000000,0,0x36,0xE6,Read,ACK
16.861128644000001,0,0x36,0x0B,Read,NAK
16.861316861999999,0,0x36,0x44,Write,ACK
16.861469994000000,0,0x36,0x60,Read,ACK
16.861499448000000,0,0x36,0xD6,Read,NAK
16.861686943999999,0,0x36,0x45,Write,ACK
16.861839232000001,0,0x36,0x63,Read,ACK
16.861868705999999,0,0x36,0x04,Read,NAK
16.862057440000001,0,0x36,0x46,Write,ACK
16.862210353999998,0,0x36,0x00,Read,ACK
16.862239832000000,0,0x36,0x32,Read,NAK
16.862464822000000,0,0x36,0x47,Write,ACK
16.862635325999999,0,0x36,0x8D,Read,ACK
16.862664792000000,0,0x36,0xFF,Read,NAK
16.862861989999999,0,0x36,0x48,Write,ACK
16.863017589999998,0,0x36,0xEE,Read,ACK
16.863047084000002,0,0x36,0x5F,Read,NAK
16.863235392000000,0,0x36,0x49,Write,ACK
16.863387178000000,0,0x36,0x40,Read,ACK
16.863416644000001,0,0x36,0x22,Read,NAK
16.863604345999999,0,0x36,0x4A,Write,ACK
16.863857973999998,0,0x36,0xF4,Read,ACK
16.863887458000001,0,0x36,0x10,Read,NAK
16.864096077999999,0,0x36,0x4B,Write,ACK
16.864252539999999,0,0x36,0xE3,Read,ACK
16.864282020000001,0,0x36,0x08,Read,NAK
16.864463875999999,0,0x36,0x4C,Write,ACK
16.864619795999999,0,0x36,0xFF,Read,ACK
16.864649270000001,0,0x36,0xFF,Read,NAK
16.864826982000000,0,0x36,0x4D,Write,ACK
16.864970916000001,0,0x36,0xFF,Read,ACK
16.865000387999999,0,0x36,0xFF,Read,NAK
16.865176536000000,0,0x36,0x4E,Write,ACK
16.865320392000001,0,0x36,0x76,Read,ACK
16.865349863999999,0,0x36,0x3B,Read,NAK
16.865526614000000,0,0x36,0x4F,Write,ACK
16.865670462000001,0,0x36,0x8D,Read,ACK
16.865699943999999,0,0x36,0x11,Read,NAK
16.872311218000000,0,0x36,0xB0,Write,ACK
16.875774287999999,0,0x36,0x00,Read,ACK
16.875803749999999,0,0x36,0x00,Read,NAK
16.876006541999999,0,0x36,0xB1,Write,ACK
16.876153433999999,0,0x36,0x0F,Read,ACK
16.876182898000000,0,0x36,0x69,Read,NAK
16.876362367999999,0,0x33,0x59,Write,ACK
16.876518818000001,0,0x36,0x01,Read,ACK
16.876548289999999,0,0x36,0x00,Read,NAK
16.876724826000000,0,0x36,0xB3,Write,ACK
16.876866497999998,0,0x36,0x70,Read,ACK
16.876895976000000,0,0x36,0x2B,Read,NAK
16.877074275999998,0,0x36,0xB4,Write,ACK
16.877219069999999,0,0x36,0x80,Read,ACK
16.877248561999998,0,0x36,0x7F,Read,NAK
16.877436035999999,0,0x36,0xB5,Write,ACK
16.877577912000000,0,0x36,0x05,Read,ACK
16.877607386000001,0,0x36,0x00,Read,NAK
16.877789027999999,0,0x36,0xB6,Write,ACK
16.877948312000001,0,0x36,0x56,Read,ACK
16.877977781999999,0,0x36,0x13,Read,NAK
16.878162438000000,0,0x36,0xB7,Write,ACK
16.878312970000000,0,0x36,0x00,Read,ACK
16.878342453999998,0,0x36,0x06,Read,NAK
16.878522640000000,0,0x36,0xB8,Write,ACK
16.878670658000001,0,0x36,0x00,Read,ACK
16.878700125999998,0,0x36,0x00,Read,NAK
16.878890832000000,0,0x36,0xB9,Write,ACK
16.879033874000001,0,0x36,0x6B,Read,ACK
16.879063332000001,0,0x36,0x00,Read,NAK
16.879236326000001,0,0x36,0xBA,Write,ACK
16.879375822000000,0,0x36,0x0C,Read,ACK
16.879405297999998,0,0x36,0x09,Read,NAK
16.879582874000000,0,0x36,0xBB,Write,ACK
16.880172976000001,0,0x36,0x55,Read,ACK
16.880202445999998,0,0x36,0x00,Read,NAK
16.880420535999999,0,0x36,0xBC,Write,ACK
16.880564392000000,0,0x36,0xFA,Read,ACK
16.880593879999999,0,0x36,0x13,Read,NAK
16.880766974000000,0,0x36,0xBD,Write,ACK
16.880912188000000,0,0x36,0x04,Read,ACK
16.880941662000001,0,0x36,0x02,Read,NAK
16.881161742000000,0,0x36,0xBE,Write,ACK
16.881298006000002,0,0x36,0x00,Read,ACK
16.881327482000000,0,0x36,0x00,Read,NAK
16.881490264000000,0,0x36,0xBF,Write,ACK
16.881625178000000,0,0x36,0x00,Read,ACK
16.881654648000001,0,0x36,0x00,Read,NAK
16.887802548000000,0,0x36,0xD0,Write,ACK
16.888292218000000,0,0x36,0x93,Read,ACK
16.888321716000000,0,0x36,0x0E,Read,NAK
16.888541673999999,0,0x36,0xD1,Write,ACK
16.888680745999999,0,0x36,0x00,Read,ACK
16.888710236000001,0,0x36,0x00,Read,NAK
16.888888844000000,0,0x36,0xD2,Write,ACK
16.889026884000000,0,0x36,0x00,Read,ACK
16.889056360000001,0,0x36,0x00,Read,NAK
16.889220816000002,0,0x36,0xD3,Write,ACK
16.889357078000000,0,0x36,0x00,Read,ACK
16.889386540000000,0,0x36,0x00,Read,NAK
16.889550157999999,0,0x36,0xD4,Write,ACK
16.889685386000000,0,0x36,0x00,Read,ACK
16.889714860000002,0,0x36,0x00,Read,NAK
16.889877846000001,0,0x36,0xD5,Write,ACK
16.890013182000001,0,0x36,0x00,Read,ACK
16.890042648000001,0,0x36,0x00,Read,NAK
16.890208340000001,0,0x36,0xD6,Write,ACK
16.890354389999999,0,0x36,0x00,Read,ACK
16.890383880000002,0,0x36,0x00,Read,NAK
16.890546978000000,0,0x36,0xD7,Write,ACK
16.890682303999998,0,0x36,0x00,Read,ACK
16.890711774000000,0,0x36,0x00,Read,NAK
16.890874673999999,0,0x36,0xD8,Write,ACK
16.891012084000000,0,0x36,0x00,Read,ACK
16.891041558000001,0,0x36,0x00,Read,NAK
16.891211840000000,0,0x36,0xD9,Write,ACK
16.891347069999998,0,0x36,0x00,Read,ACK
16.891376531999999,0,0x36,0x00,Read,NAK
16.891545669999999,0,0x36,0xDA,Write,ACK
16.891856096000001,0,0x36,0x00,Read,ACK
16.891885590000001,0,0x36,0x00,Read,NAK
16.892028369999998,0,0x36,0xDB,Write,ACK
16.892119741999998,,0x3B,,Write,NAK
16.892146402000002,0,0x3B,0x08,Write,ACK
16.892175775999998,0,0x3B,0x00,Write,ACK
16.892317416000001,0,0x36,0xDC,Write,ACK
16.892434103999999,0,0x36,0x1B,Read,ACK
16.892463564000000,0,0x36,0x00,Read,NAK
16.892600305999999,0,0x36,0xDD,Write,ACK
16.892716358000001,0,0x36,0xFF,Read,ACK
16.892745833999999,0,0x36,0xFF,Read,NAK
16.892881144000000,0,0x36,0xDE,Write,ACK
16.892999998000001,0,0x36,0x24,Read,ACK
16.893029479999999,0,0x36,0x60,Read,NAK
16.893168719999998,0,0x36,0xDF,Write,ACK
16.893285918000000,0,0x36,0xC5,Read,ACK
16.893315407999999,0,0x36,0x08,Read,ACK
16.899748570000000,0,0x36,0xE0,Write,ACK
16.899873660000001,0,0x36,0x81,Read,ACK
16.899903166000001,0,0x36,0x0F,Read,NAK
16.900045725999998,0,0x36,0xE1,Write,ACK
16.900167738000000,0,0x36,0x1F,Read,ACK
16.900197223999999,0,0x36,0x00,Read,NAK
16.900339471999999,0,0x36,0xE2,Write,ACK
16.900459487999999,0,0x36,0x00,Read,ACK
16.900488945999999,0,0x36,0xFF,Read,NAK
16.900629565999999,0,0x36,0xE3,Write,ACK
16.900749474000001,0,0x36,0x03,Read,ACK
16.900778954000000,0,0x36,0x00,Read,NAK
16.900920081999999,0,0x33,0x72,Write,ACK
16.901045684000000,0,0x36,0x1F,Read,ACK
16.901075173999999,0,0x36,0x00,Read,NAK
16.901217032000002,0,0x36,0xE5,Write,ACK
16.901337458000000,0,0x36,0x04,Read,ACK
16.901366946000000,0,0x36,0x00,Read,NAK
16.901506808000001,0,0x36,0xE6,Write,ACK
16.901625549999999,0,0x36,0x66,Read,ACK
16.901655036000001,0,0x36,0xD5,Read,NAK
16.901794496000001,0,0x36,0xE7,Write,ACK
16.901917640000001,0,0x36,0x03,Read,ACK
16.901947106000001,0,0x36,0x00,Read,NAK
16.902089367999999,0,0x36,0xE8,Write,ACK
16.902209035999999,0,0x36,0xBE,Read,ACK
16.902238541999999,0,0x36,0x4A,Read,NAK
16.902383316000002,0,0x36,0xE9,Write,ACK
16.902505718000000,0,0x36,0x00,Read,ACK
16.902535191999998,0,0x36,0x00,Read,NAK
16.902677136000001,0,0x36,0xEA,Write,ACK
16.902796832000000,0,0x36,0x90,Read,ACK
16.902826313999999,0,0x36,0x46,Read,NAK
16.902968061999999,0,0x36,0xEB,Write,ACK
16.903087358000001,0,0x36,0x00,Read,ACK
16.903116833999999,0,0x36,0x00,Read,NAK
16.903258254000001,0,0x36,0xEC,Write,ACK
16.903377536000001,0,0x36,0x00,Read,ACK
16.903407017999999,0,0x36,0x40,Read,NAK
16.903548346000001,0,0x36,0xED,Write,ACK
16.903701172000002,0,0x36,0x00,Read,ACK
16.903730643999999,0,0x36,0x00,Read,NAK
16.903883866000001,0,0x36,0xEE,Write,ACK
16.903998344000001,0,0x36,0x00,Read,ACK
16.904027811999999,0,0x36,0x7D,Read,NAK
16.904166222000001,0,0x36,0xEF,Write,ACK
16.904282596000002,0,0x36,0x20,Read,ACK
16.904312067999999,0,0x36,0x08,Read,NAK
16.911740584000000,0,0x36,0xF0,Write,ACK
16.911871732000002,0,0x36,0xFF,Read,ACK
16.911901210000000,0,0x36,0xFF,Read,NAK
16.912049847999999,0,0x36,0xF1,Write,ACK
16.912172131999998,0,0x36,0xFF,Read,ACK
16.912201612000000,0,0x36,0xFF,Read,NAK
16.912362318000000,0,0x36,0xF2,Write,ACK
16.912499713999999,0,0x36,0xFF,Read,ACK
16.912529186000000,0,0x36,0xFF,Read,NAK
16.912685740000001,0,0x36,0xF3,Write,ACK
16.912805744000000,0,0x36,0xFF,Read,ACK
16.912835216000001,0,0x36,0xFF,Read,NAK
16.912976774000001,0,0x36,0xF4,Write,ACK
16.913094999999998,0,0x36,0xB2,Read,ACK
16.913124484000001,0,0x36,0x20,Read,NAK
16.913264674000001,0,0x36,0xF5,Write,ACK
16.913382605999999,0,0x36,0x00,Read,ACK
16.913412080000001,0,0x36,0x00,Read,NAK
16.913551840000000,0,0x36,0xF6,Write,ACK
16.913670614000001,0,0x36,0x00,Read,ACK
16.913700083999998,0,0x36,0x00,Read,NAK
16.913839534000001,0,0x36,0xF7,Write,ACK
16.913957572000001,0,0x36,0x70,Read,ACK
16.913987037999998,0,0x36,0xF0,Read,NAK
16.914125670000001,0,0x36,0xF8,Write,ACK
16.914243582000001,0,0x36,0xC3,Read,ACK
16.914273076000001,0,0x36,0x3F,Read,NAK
16.914411697999999,0,0x36,0xF9,Write,ACK
16.914529735999999,0,0x36,0x05,Read,ACK
16.914559214000001,0,0x36,0x5A,Read,NAK
16.914697833999998,0,0x36,0xFA,Write,ACK
16.914816170000002,0,0x36,0x60,Read,ACK
16.914845642000000,0,0x36,0xFF,Read,NAK
16.914984482000001,0,0x36,0xFB,Write,ACK
16.915099512000001,0,0x36,0x2B,Read,NAK
16.915128880000001,0,0x36,0x6B,Read,ACK
16.915271118000000,0,0x36,0xFC,Write,ACK
16.915389055999999,0,0x36,0x1F,Read,ACK
16.915418534000001,0,0x36,0x00,Read,NAK
16.915556939999998,0,0x36,0xFD,Write,ACK
16.915676124000001,0,0x36,0x10,Read,ACK
16.915705599999999,0,0x36,0x29,Read,NAK
16.915844538000002,0,0x36,0xFE,Write,ACK
16.915962780000001,0,0x36,0x42,Read,ACK
16.915992244000002,0,0x36,0xD2,Read,NAK
16.916130568000000,0,0x36,0xFF,Write,ACK
16.916248478000000,0,0x36,0xEE,Read,ACK
16.916277986000001,0,0x36,0x5F,Read,NAK
16.923801414000000,0,0x36,0x38,Write,ACK
16.923946919999999,0,0x36,0x27,Read,ACK
16.923976398000001,0,0x36,0x00,Read,NAK
16.924152010000000,0,0x36,0x39,Write,ACK
16.924295443999998,0,0x36,0x20,Read,ACK
16.924324916000000,0,0x36,0x15,Read,NAK
16.924497511999999,0,0x36,0x18,Write,ACK
16.924642714000001,0,0x36,0x8F,Read,ACK
16.924672200000000,0,0x36,0x11,Read,NAK
16.924842911999999,0,0x36,0x23,Write,ACK
16.924988832000000,0,0x36,0x8D,Read,ACK
16.925018322000000,0,0x36,0x11,Read,NAK
16.925187372000000,0,0x36,0x35,Write,ACK
16.925332772000001,0,0x36,0x8C,Read,ACK
16.925362264000000,0,0x36,0x11,Read,NAK
16.925537351999999,0,0x36,0x43,Write,ACK
16.925679204000001,0,0x36,0xE6,Read,ACK
16.925708702000001,0,0x36,0x0B,Read,NAK
16.925881495999999,0,0x36,0x4B,Write,ACK
16.926023663999999,0,0x36,0xE3,Read,ACK
16.926053161999999,0,0x36,0x08,Read,NAK
16.926230208000000,0,0x36,0xB1,Write,ACK
16.926342515999998,,0x3B,,Write,NAK
16.926369193999999,0,0x3B,0x07,Write,NAK
16.926398549999998,0,0x3B,0x34,Write,NAK
16.926578842000001,0,0x36,0xD0,Write,ACK
16.926720924000001,0,0x36,0x93,Read,ACK
16.926750406000000,0,0x36,0x0E,Read,NAK
16.926925072000000,0,0x36,0xB3,Write,ACK
16.927067680000000,0,0x36,0x70,Read,ACK
16.927097165999999,0,0x36,0x2B,Read,NAK
16.927267766000000,0,0x36,0x4D,Write,ACK
16.927411612000000,0,0x36,0xFF,Read,ACK
16.927441097999999,0,0x36,0xFF,Read,NAK
16.927720556000001,0,0x36,0x0A,Write,ACK
16.927863771999998,0,0x36,0xF9,Read,ACK
16.927893258000001,0,0x36,0xFD,Read,NAK
16.928086690000001,0,0x36,0x0B,Write,ACK
16.928269596000000,0,0x36,0x4B,Read,ACK
16.928299064000001,0,0x36,0xFD,Read,NAK
16.928499173999999,0,0x36,0x09,Write,ACK
16.928650306000002,0,0x36,0x42,Read,ACK
16.928679769999999,0,0x36,0xD2,Read,NAK
16.928873828000000,0,0x36,0x4B,Write,ACK
16.929017456000000,0,0x36,0xE3,Read,ACK
16.929046960000001,0,0x36,0x08,Read,NAK
16.929223184000001,0,0x36,0x43,Write,ACK
16.929367337999999,0,0x36,0xE6,Read,ACK
16.929396822000001,0,0x36,0x0B,Read,NAK
16.957315231999999,0,0x36,0x08,Write,ACK
16.957345027999999,0,0x36,0x00,Write,ACK
16.957374819999998,0,0x36,0x1F,Write,ACK
16.957549182000001,0,0x36,0x06,Write,ACK
16.957673774000000,0,0x36,0x24,Read,ACK
16.957703244000001,0,0x36,0x60,Read,NAK
16.957857294000000,0,0x36,0x09,Write,ACK
16.957981457999999,0,0x36,0x42,Read,ACK
16.958010915999999,0,0x36,0xD2,Read,NAK
16.958157075999999,0,0x36,0x0B,Write,ACK
16.958279139999998,0,0x36,0x4B,Read,ACK
16.958308605999999,0,0x36,0xFD,Read,NAK
16.958456431999998,0,0x36,0x09,Write,ACK
16.958583195999999,0,0x36,0x42,Read,ACK
16.958612654000000,0,0x36,0xD1,Read,ACK
16.958794734000001,0,0x36,0x06,Write,ACK
16.958917975999999,0,0x36,0x24,Read,ACK
16.958947437999999,0,0x36,0x60,Read,NAK
16.959112432000001,0,0x36,0x05,Write,ACK
16.959235648000000,0,0x36,0xDE,Read,ACK
16.959265139999999,0,0x36,0x10,Read,NAK
16.959410857999998,0,0x36,0x4D,Write,ACK
16.959532813999999,0,0x36,0xFF,Read,ACK
16.959562290000001,0,0x36,0xFF,Read,NAK
16.959859880000000,0,0x69,0xBD,Write,ACK
16.960279876000001,0,0x69,0xEE,Read,ACK
16.960437882000001,0,0x69,0xBD,Write,ACK
16.960467663999999,0,0x69,0xED,Write,ACK
16.960615356000002,0,0x69,0xB4,Write,ACK
16.960745584000001,0,0x69,0x31,Read,NAK
16.960911287999998,0,0x69,0xB3,Write,ACK
16.961041179999999,0,0x69,0xE0,Read,NAK
16.961203665999999,0,0x69,0xB4,Write,ACK
16.961330663999998,0,0x69,0x31,Read,NAK
16.961496470000000,0,0x69,0xB3,Write,ACK
16.961623440000000,0,0x69,0xE0,Read,NAK
16.961773938000000,0,0x69,0xB4,Write,ACK
16.961900107999998,0,0x69,0x31,Read,NAK
16.962045602000000,0,0x69,0xB7,Write,ACK
16.962171128000001,0,0x69,0x15,Read,NAK
16.962324211999999,0,0x36,0xD0,Write,ACK
16.962451938000001,0,0x36,0x93,Read,ACK
16.962481434000001,0,0x36,0x0E,Read,NAK
16.962659416000001,0,0x36,0xB3,Write,ACK
16.962784436000000,0,0x36,0x70,Read,ACK
16.962813917999998,0,0x36,0x2B,Read,NAK
16.963003354000001,0,0x69,0xB1,Write,ACK
16.963127446000001,0,0x69,0x7A,Read,NAK
16.963274380000001,0,0x69,0xB2,Write,ACK
16.963396988000000,0,0x69,0xDF,Read,NAK
16.963543225999999,0,0x69,0xB3,Write,ACK
16.963749876000001,0,0x69,0xE0,Read,NAK
16.963902592000000,0,0x69,0xB4,Write,ACK
16.964027896000001,0,0x69,0x31,Read,NAK
16.964176108000000,0,0x69,0xB5,Write,ACK
16.964300598000001,0,0x69,0x00,Read,NAK
16.964448588000000,0,0x69,0xB6,Write,ACK
16.964573902000001,0,0x69,0xFF,Read,NAK
16.964721084000001,0,0x69,0xB7,Write,ACK
16.964845879999999,0,0x69,0x15,Read,NAK
16.964994508000000,0,0x69,0xB8,Write,ACK
16.965120041999999,0,0x69,0x38,Read,NAK
16.965268655999999,0,0x69,0xB9,Write,ACK
16.965393775999999,0,0x69,0x4B,Read,NAK
16.965541038000001,0,0x69,0xBA,Write,ACK
16.965665204000000,0,0x69,0x9F,Read,NAK
16.965812788000001,0,0x69,0xBB,Write,ACK
16.965936345999999,0,0x69,0x16,Read,NAK
16.966083820000001,0,0x69,0xBC,Write,ACK
16.966208007999999,0,0x69,0x60,Read,NAK
16.966355667999999,0,0x69,0xBD,Write,ACK
16.966480466000000,0,0x69,0xEC,Read,NAK
16.966628578000002,0,0x69,0xBE,Write,ACK
16.966751823999999,0,0x69,0x34,Read,NAK
16.966899602000002,0,0x69,0xBF,Write,ACK
16.967023266000002,0,0x69,0x00,Read,NAK
16.967170845999998,0,0x69,0xC0,Write,ACK
16.967294374000002,0,0x69,0x92,Read,NAK
16.967442284000001,0,0x69,0xC1,Write,ACK
16.967566234000000,0,0x69,0x08,Read,ACK
16.968034436000000,0,0x69,0xC2,Write,ACK
16.968158618000000,0,0x69,0x00,Read,NAK
16.968308686000000,0,0x69,0xC3,Write,ACK
16.968434016000000,0,0x69,0x68,Read,NAK
16.968613366000000,0,0x69,0xB7,Write,ACK
16.968739004000000,0,0x69,0x15,Read,NAK
16.968887202000001,0,0x69,0xBC,Write,ACK
16.969015658000000,0,0x69,0x60,Read,NAK
16.969337723999999,0,0x36,0x0A,Write,ACK
16.969469048000001,0,0x36,0xF9,Read,ACK
16.969498527999999,0,0x36,0xFD,Read,NAK
16.969687180000001,0,0x36,0x0B,Write,ACK
16.969811040000000,0,0x36,0x4B,Read,ACK
16.969840489999999,0,0x36,0xFD,Read,NAK
16.970013206000001,0,0x36,0x09,Write,ACK
16.970141426000001,0,0x36,0x42,Read,ACK
16.970170895999999,0,0x36,0xD2,Read,NAK
16.970340688000000,0,0x36,0x09,Write,ACK
16.970466095999999,0,0x36,0x42,Read,ACK
16.970495562000000,0,0x36,0xD2,Read,NAK
16.970679516000001,0,0x36,0x43,Write,ACK
16.970808473999998,0,0x36,0x72,Read,ACK
16.970837964000001,0,0x36,0x08,Read,NAK
16.971012093999999,0,0x36,0x19,Write,ACK
16.971138247999999,0,0x36,0x66,Read,ACK
16.971167712000000,0,0x36,0xD5,Read,NAK
16.971326976000000,0,0x36,0x4B,Write,ACK
16.971449782000001,0,0x36,0xE1,Read,ACK
16.971479265999999,0,0x36,0x08,Read,NAK
16.976241064000000,0,0x36,0xFB,Write,NAK
16.976359217999999,0,0x36,0x57,Read,ACK
16.976388677999999,0,0x36,0xD6,Read,NAK
16.976549616000000,0,0x36,0x00,Write,ACK
16.976666789999999,0,0x36,0x80,Read,ACK
16.976696275999998,0,0x36,0x00,Read,NAK
16.976831686000001,0,0x36,0x00,Write,NAK
16.976953624000000,0,0x36,0xA0,Read,ACK
16.976983120000000,0,0x36,0xFF,Read,NAK
16.977125516000001,0,0x36,0x02,Write,ACK
16.977244049999999,0,0x36,0x80,Read,ACK
16.977273541999999,0,0x36,0x7F,Read,NAK
16.977414142000001,0,0x36,0x03,Write,ACK
16.977534366000000,0,0x36,0x01,Read,ACK
16.977563826000001,0,0x36,0xFF,Read,NAK
16.977702260000001,0,0x36,0x04,Write,ACK
16.977820082000001,0,0x36,0x00,Read,ACK
16.977849553999999,0,0x36,0x19,Read,NAK
16.977988073999999,0,0x36,0x05,Write,ACK
16.978107218000002,0,0x36,0xDE,Read,ACK
16.978136725999999,0,0x36,0x10,Read,NAK
16.978277213999998,0,0x36,0x06,Write,ACK
16.978396186000001,0,0x36,0x24,Read,ACK
16.978425661999999,0,0x36,0x60,Read,NAK
16.978566172000001,0,0x36,0x07,Write,ACK
16.978684286000000,0,0x36,0xE7,Read,ACK
16.978713769999999,0,0x36,0x63,Read,NAK
16.978855006000000,0,0x36,0x08,Write,ACK
16.978975326000000,0,0x36,0x00,Read,ACK
16.979004803999999,0,0x36,0x1F,Read,NAK
16.979142912000000,0,0x36,0x09,Write,ACK
16.979260419999999,0,0x36,0x42,Read,ACK
16.979289871999999,0,0x36,0xD2,Read,NAK
16.979426862000000,0,0x36,0x0A,Write,ACK
16.979547048000001,0,0x36,0xF9,Read,ACK
16.979576521999999,0,0x36,0xFD,Read,NAK
16.979722660000000,0,0x36,0x0B,Write,ACK
16.979838816000001,0,0x36,0x4B,Read,ACK
16.979868276000001,0,0x36,0xFD,Read,NAK
16.980005257999998,0,0x36,0x0C,Write,ACK
16.980121717999999,0,0x36,0x38,Read,ACK
16.980151200000002,0,0x36,0x00,Read,NAK
16.980291284000000,0,0x36,0x0D,Write,ACK
16.980410039999999,0,0x36,0x78,Read,ACK
16.980439524000001,0,0x36,0x5F,Read,NAK
16.980579175999999,0,0x36,0x0E,Write,ACK
16.980696368000000,0,0x36,0x24,Read,ACK
16.980725853999999,0,0x36,0x60,Read,NAK
16.980863026000002,0,0x36,0x0F,Write,ACK
16.980983427999998,0,0x36,0xE0,Read,ACK
16.981012914000001,0,0x36,0x10,Read,NAK
16.987693472000000,0,0x36,0x10,Write,ACK
16.987814316000001,0,0x36,0x55,Read,ACK
16.987843779999999,0,0x36,0x11,Read,NAK
16.987985127999998,0,0x36,0x11,Write,ACK
16.988102934000000,0,0x36,0x05,Read,ACK
16.988132405999998,0,0x36,0x31,Read,NAK
16.988272609999999,0,0x36,0x12,Write,ACK
16.988390016000000,0,0x36,0x00,Read,ACK
16.988419474000001,0,0x36,0x28,Read,NAK
16.988559354000000,0,0x36,0x13,Write,ACK
16.988676758000000,0,0x36,0x00,Read,ACK
16.988706239999999,0,0x36,0x5B,Read,NAK
16.988845604000002,0,0x36,0x14,Write,ACK
16.988962885999999,0,0x36,0x84,Read,ACK
16.988992358000001,0,0x36,0x04,Read,NAK
16.989131514000000,0,0x36,0x15,Write,ACK
16.989249235999999,0,0x36,0x48,Read,ACK
16.989278706000000,0,0x36,0x01,Read,NAK
16.989417962000001,0,0x36,0x16,Write,ACK
16.989535574000001,0,0x36,0x26,Read,ACK
16.989565041999999,0,0x36,0x1E,Read,NAK
16.989704400000001,0,0x36,0x17,Write,ACK
16.989822436000001,0,0x36,0x00,Read,ACK
16.989851917999999,0,0x36,0x00,Read,NAK
16.989991472000000,0,0x36,0x18,Write,ACK
16.990109268000001,0,0x36,0x8F,Read,ACK
16.990138762000001,0,0x36,0x11,Read,NAK
16.990278228000001,0,0x36,0x19,Write,ACK
16.990395946000000,0,0x36,0x63,Read,ACK
16.990425414000001,0,0x36,0xD5,Read,NAK
16.990564784000000,0,0x36,0x1A,Write,ACK
16.990682580000001,0,0x36,0x16,Read,ACK
16.990712070000001,0,0x36,0x1F,Read,NAK
16.990851425999999,0,0x36,0x1B,Write,ACK
16.990945706000002,,0x3B,,Write,NAK
16.990972360000001,0,0x3B,0x5E,Write,ACK
16.991001738000001,0,0x3B,0x6C,Write,ACK
16.991146833999998,0,0x36,0x1C,Write,ACK
16.991262028000001,0,0x36,0xED,Read,ACK
16.991291518000001,0,0x36,0x00,Read,NAK
16.991425979999999,0,0x36,0x1D,Write,ACK
16.991540661999998,0,0x36,0x14,Read,ACK
16.991570134000000,0,0x36,0x03,Read,NAK
16.991707836000000,0,0x36,0x1E,Write,ACK
16.991830742000001,0,0x36,0xC0,Read,ACK
16.991860230000000,0,0x36,0x08,Read,NAK
16.992020117999999,0,0x36,0x1F,Write,ACK
16.992138330000000,0,0x36,0xA9,Read,ACK
16.992167823999999,0,0x36,0x10,Read,ACK
16.999848948000000,0,0x36,0x20,Write,ACK
16.999969025999999,0,0x36,0xFF,Read,ACK
16.999998496000000,0,0x36,0xFF,Read,NAK
17.000141333999998,0,0x36,0x21,Write,ACK
17.000258934000001,0,0x36,0x00,Read,ACK
17.000288407999999,0,0x36,0x62,Read,NAK
17.000427762000001,0,0x36,0x22,Write,ACK
17.000545249999998,0,0x36,0x00,Read,ACK
17.000574751999999,0,0x36,0x17,Read,ACK
17.000713692000001,0,0x36,0x23,Write,ACK
17.000831280000000,0,0x36,0x8D,Read,ACK
17.000860769999999,0,0x36,0x11,Read,NAK
17.000999404000002,0,0x36,0x24,Write,ACK
17.001116807999999,0,0x36,0x03,Read,ACK
17.001146284000001,0,0x36,0x14,Read,NAK
17.001284798000000,0,0x36,0x25,Write,ACK
17.001401984000001,0,0x36,0x04,Read,NAK
17.001428132000001,0,0x36,0x0F,Read,ACK
17.001569692000000,0,0x36,0x26,Write,ACK
17.001656870000001,,0x1B,,Write,NAK
17.001683541999999,0,0x1B,0x13,Write,ACK
17.001712921999999,0,0x1B,0x0F,Write,ACK
17.001855301999999,0,0x36,0x27,Write,ACK
17.001973199999998,0,0x36,0x86,Read,ACK
17.002002692000001,0,0x36,0x7F,Read,NAK
17.002140592000000,0,0x36,0x28,Write,ACK
17.002258090000002,0,0x36,0x06,Read,ACK
17.002287561999999,0,0x36,0x26,Read,NAK
17.002425270000000,0,0x36,0x29,Write,ACK
17.002543054000000,0,0x36,0xA4,Read,ACK
17.002572537999999,0,0x36,0xCE,Read,NAK
17.002710768000000,0,0x36,0x2A,Write,ACK
17.002828575999999,0,0x36,0x3C,Read,ACK
17.002858042000000,0,0x36,0x04,Read,NAK
17.002996476000000,0,0x36,0x2B,Write,ACK
17.003114298000000,0,0x36,0x70,Read,ACK
17.003143768000001,0,0x36,0x38,Read,NAK
17.003281145999999,0,0x36,0x2C,Write,ACK
17.003399051999999,0,0x36,0xE1,Read,ACK
17.003428538000001,0,0x36,0xE3,Read,NAK
17.003566454000001,0,0x36,0x2D,Write,ACK
17.003979873999999,0,0x36,0x0E,Read,ACK
17.004009342000000,0,0x36,0x29,Read,NAK
17.004170043999999,0,0x36,0x2E,Write,ACK
17.004317874000002,0,0x36,0x00,Read,ACK
17.004347341999999,0,0x36,0x04,Read,NAK
17.004528157999999,0,0x36,0x2F,Write,ACK
17.004659400000001,0,0x36,0x01,Read,ACK
17.004688886000000,0,0x36,0x00,Read,NAK
17.011738063999999,0,0x36,0x30,Write,ACK
17.011877427999998,0,0x36,0x45,Read,ACK
17.011906914000001,0,0x36,0x09,Read,NAK
17.012069818000001,0,0x36,0x31,Write,ACK
17.012201057999999,0,0x36,0x36,Read,ACK
17.012230532000000,0,0x36,0x08,Read,NAK
17.012386440000000,0,0x36,0x32,Write,ACK
17.012517922000001,0,0x36,0x00,Read,ACK
17.012547410000000,0,0x36,0x0D,Read,NAK
17.012702376000000,0,0x36,0x33,Write,ACK
17.012833726000000,0,0x36,0xFF,Read,ACK
17.012863200000002,0,0x36,0xFF,Read,NAK
17.013018091999999,0,0x36,0x34,Write,ACK
17.013149030000001,0,0x36,0xEC,Read,ACK
17.013178505999999,0,0x36,0x1D,Read,NAK
17.013333075999999,0,0x36,0x35,Write,ACK
17.013541075999999,0,0x36,0x8C,Read,ACK
17.013570563999998,0,0x36,0x11,Read,NAK
17.013728996000001,0,0x36,0x36,Write,ACK
17.013859707999998,0,0x36,0x0B,Read,ACK
17.013889200000001,0,0x36,0x0E,Read,NAK
17.014043667999999,0,0x36,0x37,Write,ACK
17.014174696000001,0,0x36,0xE0,Read,ACK
17.014204188000001,0,0x36,0x05,Read,NAK
17.014358758000000,0,0x36,0x38,Write,ACK
17.014489275999999,0,0x36,0x27,Read,ACK
17.014518750000001,0,0x36,0x00,Read,NAK
17.014673114000001,0,0x36,0x39,Write,ACK
17.014804362000000,0,0x36,0x20,Read,ACK
17.014833842000002,0,0x36,0x15,Read,NAK
17.014988089999999,0,0x36,0x3A,Write,ACK
17.015118833999999,0,0x36,0x54,Read,ACK
17.015148300000000,0,0x36,0x7D,Read,NAK
17.015302861999999,0,0x36,0x3B,Write,ACK
17.015433930000000,0,0x36,0x4B,Read,ACK
17.015463376000000,0,0x36,0xFD,Read,NAK
17.015619000000001,0,0x36,0x3C,Write,ACK
17.015751376000001,0,0x36,0x80,Read,ACK
17.015780866000000,0,0x36,0x16,Read,NAK
17.015935970000001,0,0x36,0x3D,Write,ACK
17.016100028000000,0,0x36,0x00,Read,ACK
17.016129496000001,0,0x36,0x10,Read,NAK
17.016291775999999,0,0x36,0x3E,Write,ACK
17.016422918000000,0,0x36,0x34,Read,ACK
17.016452395999998,0,0x36,0x00,Read,NAK
17.016776340000000,0,0x36,0x3F,Write,ACK
17.016885911999999,,0x36,,Write,NAK
17.016912596000001,0,0x36,0x00,Write,ACK
17.016941952000000,0,0x36,0x70,Write,ACK
17.024060297999998,0,0x36,0x40,Write,ACK
17.024229343999998,0,0x36,0xFC,Read,ACK
17.024258834000001,0,0x36,0x07,Read,NAK
17.024427778000000,0,0x36,0x41,Write,ACK
17.024568810000002,0,0x36,0x00,Read,ACK
17.024598290000000,0,0x36,0x00,Read,NAK
17.024779112000001,0,0x36,0x42,Write,ACK
17.024923802000000,0,0x36,0x00,Read,ACK
17.024949950000000,0,0x36,0x05,Read,NAK
17.025129824000000,0,0x36,0x43,Write,ACK
17.025273672000001,0,0x36,0x72,Read,ACK
17.025303149999999,0,0x36,0x08,Read,NAK
17.025479182000002,0,0x36,0x44,Write,ACK
17.025623041999999,0,0x36,0x60,Read,ACK
17.025652487999999,0,0x36,0xD6,Read,NAK
17.025827916000001,0,0x36,0x45,Write,ACK
17.025971454000000,0,0x36,0x63,Read,ACK
17.026000931999999,0,0x36,0x04,Read,NAK
17.026176020000001,0,0x36,0x46,Write,ACK
17.026319453999999,0,0x36,0x00,Read,ACK
17.026348938000002,0,0x36,0x32,Read,NAK
17.026523915999999,0,0x36,0x47,Write,ACK
17.026667132000000,0,0x36,0x8A,Read,ACK
17.026696596000001,0,0x36,0xFF,Read,NAK
17.026871914000001,0,0x36,0x48,Write,ACK
17.027014921999999,0,0x36,0xEE,Read,ACK
17.027044404000002,0,0x36,0x5F,Read,NAK
17.027219492000000,0,0x36,0x49,Write,ACK
17.027363128000001,0,0x36,0x40,Read,ACK
17.027392616000000,0,0x36,0x22,Read,NAK
17.027567707999999,0,0x36,0x4A,Write,ACK
17.027712065999999,0,0x36,0xF4,Read,ACK
17.027741553999999,0,0x36,0x10,Read,NAK
17.027916535999999,0,0x36,0x4B,Write,ACK
17.028059540000001,0,0x36,0xE1,Read,ACK
17.028089047999998,0,0x36,0x08,Read,NAK
17.028264124000000,0,0x36,0x4C,Write,ACK
17.028407135999998,0,0x36,0xFF,Read,ACK
17.028436610000000,0,0x36,0xFF,Read,NAK
17.028611917999999,0,0x36,0x4D,Write,ACK
17.028754817999999,0,0x36,0xFF,Read,ACK
17.028784305999999,0,0x36,0xFF,Read,NAK
17.028959409999999,0,0x36,0x4E,Write,ACK
17.029102521999999,0,0x36,0x6F,Read,ACK
17.029132004000001,0,0x36,0x39,Read,NAK
17.029306792000000,0,0x36,0x4F,Write,ACK
17.029449981999999,0,0x36,0x8D,Read,ACK
17.029479486000000,0,0x36,0x11,Read,NAK
17.036078366000002,0,0x36,0xB0,Write,ACK
17.036230352000000,0,0x36,0x00,Read,ACK
17.036259823999998,0,0x36,0x00,Read,NAK
17.036441369999999,0,0x36,0xB1,Write,ACK
17.036586492000001,0,0x36,0x16,Read,ACK
17.036615965999999,0,0x36,0x69,Read,NAK
17.036792800000001,0,0x36,0xB2,Write,ACK
17.036939382000000,0,0x36,0x01,Read,ACK
17.036968861999998,0,0x36,0x00,Read,NAK
17.037146746000001,0,0x36,0xB3,Write,ACK
17.037290290000001,0,0x36,0x88,Read,ACK
17.037319768000000,0,0x36,0x2B,Read,NAK
17.037495792000001,0,0x36,0xB4,Write,ACK
17.037639548000001,0,0x36,0x80,Read,ACK
17.037669021999999,0,0x36,0x7F,Read,NAK
17.037845248000000,0,0x36,0xB5,Write,ACK
17.037988296000002,0,0x36,0x05,Read,ACK
17.038017753999998,0,0x36,0x00,Read,NAK
17.038184284000000,0,0x36,0xB6,Write,ACK
17.038320448000000,0,0x36,0x56,Read,ACK
17.038349918000002,0,0x36,0x13,Read,NAK
17.038512508000000,0,0x36,0xB7,Write,ACK
17.038648142000000,0,0x36,0x00,Read,ACK
17.038677614000001,0,0x36,0x06,Read,NAK
17.038840206000000,0,0x36,0xB8,Write,ACK
17.038979166000001,0,0x36,0x00,Read,ACK
17.039008643999999,0,0x36,0x00,Read,NAK
17.039171419999999,0,0x36,0xB9,Write,ACK
17.039307573999999,0,0x36,0x6B,Read,ACK
17.039337062000001,0,0x36,0x00,Read,NAK
17.039499006000000,0,0x36,0xBA,Write,ACK
17.039667672000000,0,0x36,0x0C,Read,ACK
17.039697142000001,0,0x36,0x09,Read,NAK
17.039864089999998,0,0x36,0xBB,Write,ACK
17.040000979999999,0,0x36,0x55,Read,ACK
17.040030466000001,0,0x36,0x00,Read,NAK
17.040211050000000,0,0x36,0xBC,Write,ACK
17.040347212000000,0,0x36,0x04,Read,ACK
17.040376687999998,0,0x36,0x14,Read,NAK
17.040539150000001,0,0x36,0xBD,Write,ACK
17.040678130000000,0,0x36,0x04,Read,ACK
17.040707615999999,0,0x36,0x02,Read,NAK
17.040891208000001,0,0x36,0xBE,Write,ACK
17.041027276000001,0,0x36,0x00,Read,ACK
17.041056762000000,0,0x36,0x00,Read,NAK
17.041240162000001,0,0x36,0xBF,Write,ACK
17.041385284000000,0,0x36,0x00,Read,ACK
17.041414740000000,0,0x36,0x00,Read,NAK
17.048128303999999,0,0x36,0xD0,Write,ACK
17.048413700000001,0,0x36,0xB6,Read,ACK
17.048443192000001,0,0x36,0x0E,Read,NAK
17.048636387999998,0,0x36,0xD1,Write,ACK
17.048779530000001,0,0x36,0x00,Read,ACK
17.048808999999999,0,0x36,0x00,Read,NAK
17.048980327999999,0,0x36,0xD2,Write,ACK
17.049118365999998,0,0x36,0x00,Read,ACK
17.049147840000000,0,0x36,0x00,Read,NAK
17.049334060000000,0,0x36,0xD3,Write,ACK
17.049473674000001,0,0x36,0x00,Read,ACK
17.049503139999999,0,0x36,0x00,Read,NAK
17.049680825999999,0,0x36,0xD4,Write,ACK
17.049818936000001,0,0x36,0x00,Read,ACK
17.049845092000002,0,0x36,0x00,Read,ACK
17.050056011999999,0,0x36,0xD5,Write,ACK
17.050199872000000,0,0x36,0x00,Read,ACK
17.050229332000001,0,0x36,0x00,Read,NAK
17.050406817999999,0,0x36,0xD6,Write,ACK
17.050561926000000,0,0x36,0x00,Read,ACK
17.050591401999998,0,0x36,0x00,Read,NAK
17.050782942000001,0,0x36,0xD7,Write,ACK
17.050929314000001,0,0x36,0x00,Read,ACK
17.050958785999999,0,0x36,0x00,Read,NAK
17.051131884000000,0,0x36,0xD8,Write,ACK
17.051273355999999,0,0x36,0x00,Read,ACK
17.051302826000001,0,0x36,0x00,Read,NAK
17.051478220000000,0,0x36,0xD9,Write,ACK
17.051669170000000,0,0x36,0x00,Read,ACK
17.051698672000001,0,0x36,0x00,Read,NAK
17.051852891999999,0,0x36,0xDA,Write,ACK
17.051984676000000,0,0x36,0x00,Read,ACK
17.052014138000001,0,0x36,0x00,Read,NAK
17.052168920000000,0,0x36,0xDB,Write,ACK
17.052296739999999,0,0x36,0x10,Read,ACK
17.052326218000001,0,0x36,0x00,Read,NAK
17.052486706000000,0,0x36,0xDC,Write,ACK
17.052619117999999,0,0x36,0x1C,Read,ACK
17.052648580000000,0,0x36,0x00,Read,NAK
17.052801976000001,0,0x36,0xDD,Write,ACK
17.052932316000000,0,0x36,0xFF,Read,ACK
17.052961780000000,0,0x36,0xFF,Read,NAK
17.053117208000000,0,0x36,0xDE,Write,ACK
17.053243152000000,0,0x36,0x24,Read,ACK
17.053272612000001,0,0x36,0x60,Read,NAK
17.053429053999999,0,0x36,0xDF,Write,ACK
17.053553833999999,0,0x36,0xC4,Read,ACK
17.053583337999999,0,0x36,0x10,Read,NAK
17.059796821999999,0,0x36,0xE0,Write,ACK
17.059929958000001,0,0x36,0x79,Read,ACK
17.059959427999999,0,0x36,0x0D,Read,NAK
17.060128777999999,0,0x36,0xE1,Write,ACK
17.060259198000001,0,0x36,0xA2,Read,ACK
17.060288666000002,0,0x36,0xFF,Read,NAK
17.060446991999999,0,0x36,0xE2,Write,ACK
17.060573460000001,0,0x36,0xE0,Read,ACK
17.060602954000000,0,0x36,0x10,Read,NAK
17.060759994000001,0,0x36,0xE3,Write,ACK
17.060892075999998,0,0x36,0xFA,Read,ACK
17.060921554000000,0,0x36,0xFF,Read,NAK
17.061072066000001,0,0x36,0xE4,Write,ACK
17.061197885999999,0,0x36,0xB4,Read,ACK
17.061227396000000,0,0x36,0x12,Read,NAK
17.061376427999999,0,0x36,0xE5,Write,ACK
17.061506540000000,0,0x36,0x02,Read,ACK
17.061536019999998,0,0x36,0x00,Read,NAK
17.061685577999999,0,0x36,0xE6,Write,ACK
17.061810978000000,0,0x36,0xE0,Read,ACK
17.061840476000000,0,0x36,0x10,Read,NAK
17.061988886000002,0,0x36,0xE7,Write,ACK
17.062115045999999,0,0x36,0x00,Read,ACK
17.062144537999998,0,0x36,0x00,Read,NAK
17.062293040000000,0,0x36,0xE8,Write,ACK
17.062420542000002,0,0x36,0xBE,Read,ACK
17.062450034000001,0,0x36,0x4A,Read,NAK
17.062612915999999,0,0x36,0xE9,Write,ACK
17.062744389999999,0,0x36,0x00,Read,ACK
17.062773874000001,0,0x36,0x00,Read,NAK
17.062939360000001,0,0x36,0xEA,Write,ACK
17.063065185999999,0,0x36,0x90,Read,ACK
17.063094673999998,0,0x36,0x46,Read,NAK
17.063243918000001,0,0x36,0xEB,Write,ACK
17.063368625999999,0,0x36,0x00,Read,ACK
17.063398102000001,0,0x36,0x00,Read,NAK
17.063545993999998,0,0x36,0xEC,Write,ACK
17.063694762000001,0,0x36,0x00,Read,ACK
17.063724239999999,0,0x36,0x40,Read,NAK
17.064065136000000,0,0x36,0xED,Write,ACK
17.064191504000000,0,0x36,0x00,Read,ACK
17.064220981999998,0,0x36,0x00,Read,NAK
17.064377627999999,0,0x36,0xEE,Write,ACK
17.064507654000000,0,0x36,0x00,Read,ACK
17.064537108000000,0,0x36,0x7D,Read,NAK
17.064688025999999,0,0x36,0xEF,Write,ACK
17.064813868000002,0,0x36,0x20,Read,ACK
17.064843346000000,0,0x36,0x08,Read,NAK
17.071710350000000,0,0x36,0xF0,Write,ACK
17.071851376000001,0,0x36,0xFF,Read,ACK
17.071880872000001,0,0x36,0xFF,Read,NAK
17.072044490000000,0,0x36,0xF1,Write,ACK
17.072166473999999,0,0x36,0xFF,Read,ACK
17.072195952000001,0,0x36,0xFF,Read,NAK
17.072347919999999,0,0x36,0xF2,Write,ACK
17.072467809999999,0,0x36,0xFF,Read,ACK
17.072497294000001,0,0x36,0xFF,Read,NAK
17.072638726000001,0,0x36,0xF3,Write,ACK
17.072757794000001,0,0x36,0xFF,Read,ACK
17.072787271999999,0,0x36,0xFF,Read,NAK
17.072928500000000,0,0x36,0xF4,Write,ACK
17.073047444000000,0,0x36,0xB5,Read,ACK
17.073076954000001,0,0x36,0x20,Read,NAK
17.073218069999999,0,0x36,0xF5,Write,ACK
17.073337142000000,0,0x36,0x00,Read,ACK
17.073366625999999,0,0x36,0x00,Read,NAK
17.073507637999999,0,0x36,0xF6,Write,ACK
17.073626703999999,0,0x36,0x00,Read,ACK
17.073656194000002,0,0x36,0x00,Read,NAK
17.073796785999999,0,0x36,0xF7,Write,ACK
17.073915448000001,0,0x36,0x7A,Read,ACK
17.073944908000001,0,0x36,0xF2,Read,NAK
17.074085318000002,0,0x36,0xF8,Write,ACK
17.074204263999999,0,0x36,0xC3,Read,ACK
17.074233757999998,0,0x36,0x3F,Read,NAK
17.074374366000001,0,0x36,0xF9,Write,ACK
17.074492924000001,0,0x36,0x4F,Read,ACK
17.074522395999999,0,0x36,0x58,Read,NAK
17.074662990000000,0,0x36,0xFA,Write,ACK
17.074781739999999,0,0x36,0xB8,Read,ACK
17.074811212000000,0,0x36,0xFE,Read,NAK
17.074951936000001,0,0x36,0xFB,Write,ACK
17.075070908000001,0,0x36,0x57,Read,ACK
17.075100366000001,0,0x36,0xD6,Read,NAK
17.075240869999998,0,0x36,0xFC,Write,ACK
17.075359846000001,0,0x36,0x1F,Read,ACK
17.075389328000000,0,0x36,0x00,Read,NAK
17.075529612000000,0,0x36,0xFD,Write,ACK
17.075655238000000,0,0x36,0x10,Read,ACK
17.075684729999999,0,0x36,0x29,Read,NAK
17.075827722000000,0,0x36,0xFE,Write,ACK
17.075946691999999,0,0x36,0x42,Read,ACK
17.075976153999999,0,0x36,0xCE,Read,NAK
17.076117069999999,0,0x36,0xFF,Write,ACK
17.076236143999999,0,0x36,0xEE,Read,ACK
17.076265628000002,0,0x36,0x5F,Read,NAK
17.084182152000000,0,0x36,0x38,Write,ACK
17.084328410000001,0,0x36,0x27,Read,ACK
17.084357890000000,0,0x36,0x00,Read,NAK
17.084532454000001,0,0x36,0x3C,Write,NAK
17.084671625999999,0,0x36,0x20,Read,ACK
17.084701100000000,0,0x36,0x15,Read,NAK
17.084871293999999,0,0x36,0x18,Write,ACK
17.085008565999999,0,0x36,0x8F,Read,ACK
17.085038055999998,0,0x36,0x11,Read,NAK
17.085205347999999,0,0x36,0x23,Write,ACK
17.085342197999999,0,0x36,0x8D,Read,ACK
17.085371683999998,0,0x36,0x11,Read,NAK
17.085535832000001,0,0x3B,0x1A,Write,NAK
17.085675508000001,0,0x36,0x8C,Read,ACK
17.085704990000000,0,0x36,0x11,Read,NAK
17.085874673999999,0,0x36,0x43,Write,ACK
17.086012174000000,0,0x36,0x72,Read,ACK
17.086041649999999,0,0x36,0x08,Read,NAK
17.086210909999998,0,0x36,0x4B,Write,ACK
17.086348172000001,0,0x36,0xE1,Read,ACK
17.086377670000001,0,0x36,0x08,Read,NAK
17.086547108000001,0,0x36,0xB1,Write,ACK
17.086684212000002,0,0x36,0x16,Read,ACK
17.086713694000000,0,0x36,0x69,Read,NAK
17.086880535999999,0,0x36,0xD0,Write,ACK
17.087047722000001,0,0x36,0xB6,Read,ACK
17.087077208000000,0,0x36,0x0E,Read,NAK
17.087244578000000,0,0x36,0xB3,Write,ACK
17.087381040000000,0,0x36,0x88,Read,ACK
17.087410519999999,0,0x36,0x2B,Read,NAK
17.087578012000002,0,0x36,0x4D,Write,ACK
17.087718207999998,0,0x36,0xFF,Read,ACK
17.087747682000000,0,0x36,0xFF,Read,NAK
17.087966106000000,0,0x36,0x0A,Write,ACK
17.088136297999998,0,0x36,0xD5,Read,ACK
17.088165780000001,0,0x36,0xFB,Read,NAK
17.088352455999999,0,0x36,0x0B,Write,ACK
17.088489740000000,0,0x36,0x45,Read,ACK
17.088519198000000,0,0x36,0xFD,Read,NAK
17.088686276000001,0,0x36,0x09,Write,ACK
17.088822010000001,0,0x36,0x42,Read,ACK
17.088851468000001,0,0x36,0xCE,Read,NAK
17.089034179999999,0,0x36,0x4B,Write,ACK
17.089170209999999,0,0x36,0xE1,Read,ACK
17.089199700000002,0,0x36,0x08,Read,NAK
17.089368850000000,0,0x36,0x43,Write,ACK
17.089504162000001,0,0x36,0x72,Read,ACK
17.089533635999999,0,0x36,0x08,Read,NAK
17.117110323999999,0,0x36,0x08,Write,ACK
17.117140117999998,0,0x36,0x00,Write,ACK
17.117169902000001,0,0x36,0x1F,Write,ACK
17.117340620000000,0,0x36,0x06,Write,ACK
17.117478641999998,0,0x36,0x24,Read,ACK
17.117508126000001,0,0x36,0x60,Read,NAK
17.118021416000001,0,0x36,0x09,Write,ACK
17.118148705999999,0,0x36,0x42,Read,ACK
17.118178164000000,0,0x36,0xCE,Read,NAK
17.118326820000000,0,0x36,0x0B,Write,ACK
17.118450249999999,0,0x36,0x45,Read,ACK
17.118479705999999,0,0x36,0xFD,Read,NAK
17.118625242000000,0,0x36,0x09,Write,ACK
17.118747429999999,0,0x36,0x42,Read,ACK
17.118776889999999,0,0x36,0xCE,Read,NAK
17.118984078000000,0,0x36,0x06,Write,ACK
17.119107402000001,0,0x36,0x24,Read,ACK
17.119136877999999,0,0x36,0x60,Read,NAK
17.119298730000001,0,0x36,0x05,Write,ACK
17.119421440000000,0,0x36,0xDE,Read,ACK
17.119450917999998,0,0x36,0x10,Read,NAK
17.119596330000000,0,0x36,0x4D,Write,ACK
17.119912243999998,0,0x36,0xFF,Read,ACK
17.119941718000000,0,0x36,0xFF,Read,NAK
17.120243670000001,0,0x69,0xBD,Write,ACK
17.120369193999998,0,0x69,0xEC,Read,NAK
17.120514591999999,0,0x69,0xBD,Write,ACK
17.120544381999999,0,0x69,0xED,Write,ACK
17.120687398000001,0,0x69,0xB4,Write,ACK
17.120809703999999,0,0x69,0x31,Read,NAK
17.120968942000001,0,0x69,0xB3,Write,ACK
17.121109774000001,0,0x69,0xE0,Read,NAK
17.121587254000001,0,0x69,0xB4,Write,ACK
17.121713196000002,0,0x69,0x31,Read,NAK
17.121872327999998,0,0x69,0xB3,Write,ACK
17.121995876000000,0,0x69,0xE0,Read,NAK
17.122152415999999,0,0x69,0xB4,Write,ACK
17.122274831999999,0,0x69,0x31,Read,NAK
17.122418870000001,0,0x69,0xB7,Write,ACK
17.122540936000000,0,0x69,0x15,Read,NAK
17.122688642000000,0,0x36,0xD0,Write,ACK
17.122823528000001,0,0x36,0xB6,Read,ACK
17.122853024000001,0,0x36,0x0E,Read,NAK
17.123001645999999,0,0x36,0xB3,Write,ACK
17.123124130000001,0,0x36,0x88,Read,ACK
17.123153649999999,0,0x36,0x2B,Read,NAK
17.123453284000000,0,0x69,0xB1,Write,ACK
17.123578823999999,0,0x69,0x7A,Read,NAK
17.123738169999999,0,0x69,0xB2,Write,ACK
17.123862752000001,0,0x69,0xDF,Read,NAK
17.124015862000000,0,0x69,0xB3,Write,ACK
17.124153157999999,0,0x69,0xE0,Read,NAK
17.124341466000001,0,0x69,0xB4,Write,ACK
17.124464614000001,0,0x69,0x31,Read,NAK
17.124611042000002,0,0x69,0xB5,Write,ACK
17.124734188000001,0,0x69,0x00,Read,NAK
17.124880401999999,0,0x69,0xB6,Write,ACK
17.125003417999999,0,0x69,0xFF,Read,NAK
17.125146229999999,0,0x74,0x5B,Read,NAK
17.125271653999999,0,0x69,0x15,Read,NAK
17.125417760000001,0,0x69,0xB8,Write,ACK
17.125543822000001,0,0x69,0x38,Read,NAK
17.125692640000000,0,0x69,0xB9,Write,ACK
17.125817970000000,0,0x69,0x4B,Read,NAK
17.125965652000001,0,0x69,0xBA,Write,ACK
17.126088440000000,0,0x69,0x8F,Read,NAK
17.126234396000001,0,0x69,0xBB,Write,ACK
17.126342510000001,,0x68,,Write,NAK
17.126365830000001,0,0x68,0x85,Write,NAK
17.126524904000000,0,0x69,0xBC,Write,ACK
17.126648646000000,0,0x69,0x60,Read,NAK
17.126793928000001,0,0x69,0xBD,Write,ACK
17.126921948000000,0,0x69,0xEC,Read,NAK
17.127068080000001,0,0x69,0xBE,Write,ACK
17.127195480000001,0,0x69,0x34,Read,NAK
17.127347334000000,0,0x69,0xBF,Write,ACK
17.127473372000001,0,0x69,0x00,Read,NAK
17.127672516000001,0,0x69,0xC0,Write,ACK
17.127801580000000,0,0x69,0x92,Read,NAK
17.127990025999999,0,0x69,0x60,Write,NAK
17.128132004000001,0,0x69,0x10,Read,NAK
17.128298206000000,0,0x69,0xC2,Write,ACK
17.128423959999999,0,0x69,0x00,Read,NAK
17.128571527999998,0,0x69,0xC3,Write,ACK
17.128694780000000,0,0x69,0x68,Read,NAK
17.128858701999999,0,0x69,0xB7,Write,ACK
17.128982357999998,0,0x69,0x15,Read,NAK
17.129126811999999,0,0x69,0xBC,Write,ACK
17.129250052000000,0,0x69,0x60,Read,NAK
17.129596486000001,0,0x36,0x0A,Write,ACK
17.129722934000000,0,0x36,0xD5,Read,ACK
17.129752406000001,0,0x36,0xFB,Read,NAK
17.129916261999998,0,0x36,0x0B,Write,ACK
17.130040537999999,0,0x36,0x45,Read,ACK
17.130069991999999,0,0x36,0xFD,Read,NAK
17.130223120000000,0,0x36,0x09,Write,ACK
17.130347713999999,0,0x36,0x42,Read,ACK
17.130377173999999,0,0x36,0xCE,Read,NAK
17.130550924000001,0,0x36,0x43,Write,ACK
17.130675591999999,0,0x36,0xA8,Read,ACK
17.130705081999999,0,0x36,0x0A,Read,NAK
17.130995993999999,0,0x36,0x4B,Write,ACK
17.131122116000000,0,0x36,0xE1,Read,ACK
17.131151612000000,0,0x36,0x08,Read,NAK
17.389704949999999,,0x7F,,Read,NAK
17.389837490000001,0,0x7F,0xFF,Read,NAK
17.389914436000002,0,0x7F,0xFF,Read,NAK
17.389981358000000,0,0x7F,0xFF,Read,NAK
19.661428226000002,0,0x36,0x0B,Write,ACK
19.661561213999999,0,0x36,0xF1,Read,ACK
19.661590698000001,0,0x36,0xFD,Read,NAK
19.661755708000001,0,0x36,0x09,Write,ACK
19.661886232000001,0,0x36,0x4A,Read,ACK
19.661915690000001,0,0x36,0xDA,Read,NAK
19.672286136000000,0,0x36,0x0B,Write,ACK
19.672417889999998,0,0x36,0xF1,Read,ACK
19.672447360000000,0,0x36,0xFD,Read,NAK
19.672606636000001,0,0x36,0x09,Write,ACK
19.672735081999999,0,0x36,0x4A,Read,ACK
19.672764537999999,0,0x36,0xDA,Read,NAK
19.676459022000000,0,0x36,0x0B,Write,ACK
19.676593078000000,0,0x36,0xF1,Read,ACK
19.676622567999999,0,0x36,0xFD,Read,NAK
19.676775161999998,0,0x36,0x09,Write,ACK
19.676900163999999,0,0x36,0x4A,Read,ACK
19.676929624000000,0,0x36,0xDA,Read,NAK
19.680359024000001,0,0x36,0x0B,Write,ACK
19.680491606000000,0,0x36,0xF1,Read,ACK
19.680521083999999,0,0x36,0xFD,Read,NAK
19.680673484000000,0,0x36,0x09,Write,ACK
19.680797962000000,0,0x36,0x4A,Read,ACK
19.680827430000001,0,0x36,0xDA,Read,NAK
19.994179548000002,,0x7F,,Read,NAK
19.994444598000001,0,0x7F,0xFF,Read,NAK
19.994466488000000,0,0x7F,0xFF,Read,NAK
23.085319473999999,0,0x25,0x06,Write,ACK
23.085497174000000,0,0x25,0x27,Read,NAK
23.086176724000001,0,0x25,0x07,Write,ACK
23.086575245999999,0,0x25,0x05,Read,NAK
23.087605788000001,0,0x25,0x08,Write,ACK
23.088007330000000,0,0x25,0x81,Read,NAK
23.088898237999999,0,0x25,0x0A,Write,ACK
23.089298622000001,0,0x25,0x51,Read,NAK
23.090187111999999,0,0x25,0x0B,Write,ACK
23.090557096000001,,0x22,,Read,NAK
23.090583764000002,0,0x22,0x04,Read,ACK
23.091482333999998,0,0x25,0x0C,Write,ACK
23.091865468000002,0,0x25,0x0C,Read,NAK
23.092816962000001,0,0x25,0x0D,Write,ACK
23.093215376000000,0,0x25,0x47,Read,NAK
23.094105838000001,0,0x25,0x0E,Write,ACK
23.094507706000002,0,0x25,0x04,Read,NAK
23.095403483999998,0,0x25,0x0F,Write,ACK
23.095774830000000,0,0x25,0x20,Read,NAK
23.096663509999999,0,0x25,0x10,Write,ACK
23.097063087999999,0,0x25,0x00,Read,NAK
23.097953958000002,0,0x25,0x11,Write,ACK
23.098354669999999,0,0x25,0xF0,Read,NAK
23.099248486000000,0,0x66,0x23,Write,ACK
23.099668858000001,0,0x66,0xF2,Read,NAK
23.381423724000001,,0x7F,,Read,NAK
23.381600924000001,0,0x7F,0xFF,Read,NAK
23.381694088000000,0,0x7F,0xFF,Read,NAK
23.381732551999999,0,0x7F,0xFF,Read,NAK
23.381799372000000,0,0x7F,0xFF,Read,NAK
27.130432001999999,0,0x36,0x09,Write,ACK
27.130590030000000,0,0x36,0x54,Read,ACK
27.130619490000001,0,0x36,0xDA,Read,NAK
27.130873432000001,0,0x36,0x19,Write,ACK
27.131029794000000,0,0x36,0x51,Read,ACK
27.131059250000000,0,0x36,0xD6,Read,NAK
27.131309340000001,0,0x36,0xFB,Write,ACK
27.131466752000001,0,0x36,0x5F,Read,ACK
27.131496217999999,0,0x36,0xD6,Read,NAK
27.131692474000001,0,0x36,0x00,Write,ACK
27.131845567999999,0,0x36,0x80,Read,ACK
27.131875048000001,0,0x36,0x00,Read,NAK
27.132062533999999,0,0x36,0x01,Write,ACK
27.132214923999999,0,0x36,0xA0,Read,ACK
27.132244396000001,0,0x36,0xFF,Read,NAK
27.132431791999998,0,0x36,0x02,Write,ACK
27.132584068000000,0,0x36,0x80,Read,ACK
27.132613557999999,0,0x36,0x7F,Read,NAK
27.132801237999999,0,0x36,0x03,Write,ACK
27.132953015999998,0,0x36,0x01,Read,ACK
27.132982483999999,0,0x36,0xFF,Read,NAK
27.133168414000000,0,0x36,0x04,Write,ACK
27.133320294000001,0,0x36,0x00,Read,ACK
27.133349763999998,0,0x36,0x19,Read,NAK
27.133535896000001,0,0x36,0x05,Write,ACK
27.133687428000002,0,0x36,0xDE,Read,ACK
27.133716944000000,0,0x36,0x10,Read,NAK
27.133903965999998,0,0x36,0x06,Write,ACK
27.134055967999998,0,0x36,0x24,Read,ACK
27.134085452000001,0,0x36,0x60,Read,NAK
27.134272213999999,0,0x36,0x07,Write,ACK
27.134424582000001,0,0x36,0xE7,Read,ACK
27.134454087999998,0,0x36,0x63,Read,NAK
27.134640749999999,0,0x36,0x08,Write,ACK
27.134792814000001,0,0x36,0x00,Read,ACK
27.134822278000001,0,0x36,0x1F,Read,NAK
27.135008723999999,0,0x36,0x09,Write,ACK
27.135167056000000,0,0x36,0x54,Read,ACK
27.135196518000001,0,0x36,0xDA,Read,NAK
27.135388177999999,0,0x36,0x0A,Write,ACK
27.135538692000001,0,0x36,0xDB,Read,ACK
27.135568169999999,0,0x36,0x00,Read,NAK
27.135751809999999,0,0x36,0x0B,Write,ACK
27.135900988000000,0,0x36,0x51,Read,ACK
27.135930439999999,0,0x36,0xFF,Read,NAK
27.136113355999999,0,0x36,0x0C,Write,ACK
27.136262100000000,0,0x36,0x28,Read,ACK
27.136291585999999,0,0x36,0x00,Read,NAK
27.136474384000000,0,0x36,0x0D,Write,ACK
27.136631351999998,0,0x36,0x7B,Read,ACK
27.136660834000001,0,0x36,0x5F,Read,NAK
27.136861327999998,0,0x36,0x0E,Write,ACK
27.137013516000000,0,0x36,0x21,Read,ACK
27.137042988000001,0,0x36,0x60,Read,NAK
27.137229229999999,0,0x36,0x0F,Write,ACK
27.137376090000000,0,0x36,0xE0,Read,ACK
27.137405571999999,0,0x36,0x10,Read,NAK
27.143678867999999,0,0x36,0x10,Write,ACK
27.143833969999999,0,0x36,0x65,Read,ACK
27.143863430000000,0,0x36,0x11,Read,NAK
27.144061967999999,0,0x36,0x11,Write,ACK
27.144215719999998,0,0x36,0x2B,Read,ACK
27.144245177999998,0,0x36,0xBD,Read,NAK
27.144433205999999,0,0x36,0x12,Write,ACK
27.144586539999999,0,0x36,0x00,Read,ACK
27.144616010000000,0,0x36,0x28,Read,NAK
27.144803696000000,0,0x36,0x13,Write,ACK
27.144955884000002,0,0x36,0x00,Read,ACK
27.144985364000000,0,0x36,0x5B,Read,NAK
27.145173576000001,0,0x36,0x14,Write,ACK
27.145325652000000,0,0x36,0x04,Read,ACK
27.145355137999999,0,0x36,0x06,Read,NAK
27.145541986000001,0,0x36,0x15,Write,ACK
27.145693760000000,0,0x36,0x48,Read,ACK
27.145723235999998,0,0x36,0x01,Read,NAK
27.145910932000000,0,0x36,0x16,Write,ACK
27.146062486000002,0,0x36,0x3D,Read,ACK
27.146091964000000,0,0x36,0x1E,Read,NAK
27.146279654000001,0,0x36,0x17,Write,ACK
27.146431551999999,0,0x36,0x00,Read,ACK
27.146461007999999,0,0x36,0x00,Read,NAK
27.146647554000001,0,0x36,0x18,Write,ACK
27.146798579999999,0,0x36,0x8F,Read,ACK
27.146828072000002,0,0x36,0x11,Read,NAK
27.147015666000001,0,0x36,0x19,Write,ACK
27.147230759999999,0,0x36,0x51,Read,ACK
27.147260236000001,0,0x36,0xD6,Read,NAK
27.147456888000001,0,0x36,0x1A,Write,ACK
27.147610008000001,0,0x36,0x16,Read,ACK
27.147639487999999,0,0x36,0x1F,Read,NAK
27.147825925999999,0,0x36,0x1B,Write,ACK
27.147979452000001,0,0x36,0xBC,Read,ACK
27.148008927999999,0,0x36,0xDA,Read,NAK
27.148196530000000,0,0x36,0x1C,Write,ACK
27.148349736000000,0,0x36,0xED,Read,ACK
27.148379246000001,0,0x36,0x01,Read,NAK
27.148566091999999,0,0x36,0x1D,Write,ACK
27.148717856000001,0,0x36,0x14,Read,ACK
27.148747333999999,0,0x36,0x03,Read,NAK
27.148934407999999,0,0x36,0x1E,Write,ACK
27.149085629999998,0,0x36,0xC0,Read,ACK
27.149115131999999,0,0x36,0x08,Read,NAK
27.149301684000001,0,0x36,0x1F,Write,ACK
27.149453426000001,0,0x36,0xB8,Read,ACK
27.149482912000000,0,0x36,0x10,Read,NAK
27.155717564000000,0,0x36,0x20,Write,ACK
27.155895674000000,0,0x36,0xFF,Read,ACK
27.155925150000002,0,0x36,0xFF,Read,NAK
27.156120464000001,0,0x36,0x21,Write,ACK
27.156274106000001,0,0x36,0x00,Read,ACK
27.156303573999999,0,0x36,0x62,Read,NAK
27.156493160000000,0,0x36,0x22,Write,ACK
27.156646592000001,0,0x36,0x00,Read,ACK
27.156676072000000,0,0x36,0x16,Read,NAK
27.156865312000001,0,0x36,0x23,Write,ACK
27.157019150000000,0,0x36,0x8D,Read,ACK
27.157048658000001,0,0x36,0x11,Read,NAK
27.157238006000000,0,0x36,0x24,Write,ACK
27.157390094000000,0,0x36,0x03,Read,ACK
27.157419568000002,0,0x36,0x14,Read,NAK
27.157606624000000,0,0x36,0x25,Write,ACK
27.157759026000001,0,0x36,0x05,Read,ACK
27.157788501999999,0,0x36,0x1E,Read,NAK
27.157975757999999,0,0x36,0x26,Write,ACK
27.158128262000002,0,0x36,0x3D,Read,ACK
27.158157746000001,0,0x36,0x1E,Read,NAK
27.158346064000000,0,0x36,0x27,Write,ACK
27.158500020000002,0,0x36,0x4C,Read,ACK
27.158529510000001,0,0x36,0x7F,Read,NAK
27.158718231999998,0,0x36,0x28,Write,ACK
27.158870843999999,0,0x36,0x06,Read,ACK
27.158900314000000,0,0x36,0x26,Read,NAK
27.159168101999999,0,0x36,0x29,Write,ACK
27.159322144000001,0,0x36,0xA4,Read,ACK
27.159351623999999,0,0x36,0xCE,Read,NAK
27.159542462000001,0,0x36,0x2A,Write,ACK
27.159696616000002,0,0x36,0x3C,Read,ACK
27.159726108000001,0,0x36,0x04,Read,NAK
27.159914315999998,0,0x36,0x2B,Write,ACK
27.160066709999999,0,0x36,0x70,Read,ACK
27.160096182000000,0,0x36,0x38,Read,NAK
27.160283882000002,0,0x36,0x2C,Write,ACK
27.160436879999999,0,0x36,0xE1,Read,ACK
27.160466362000001,0,0x36,0xE3,Read,NAK
27.160654474000001,0,0x36,0x2D,Write,ACK
27.160806974000000,0,0x36,0x0E,Read,ACK
27.160836453999998,0,0x36,0x29,Read,NAK
27.161024254000001,0,0x36,0x2E,Write,ACK
27.161177475999999,0,0x36,0x00,Read,ACK
27.161206950000000,0,0x36,0x04,Read,NAK
27.161394126000001,0,0x36,0x2F,Write,ACK
27.161547358000000,0,0x36,0x01,Read,ACK
27.161576822000001,0,0x36,0x00,Read,NAK
27.167732610000002,0,0x36,0x30,Write,ACK
27.167909166000001,0,0x36,0xC4,Read,ACK
27.167938668000001,0,0x36,0x0C,Read,NAK
27.168131979999998,0,0x36,0x31,Write,ACK
27.168285112000000,0,0x36,0x7D,Read,ACK
27.168314576000000,0,0x36,0x08,Read,NAK
27.168502992000001,0,0x36,0x32,Write,ACK
27.168654772000000,0,0x36,0x00,Read,ACK
27.168684246000002,0,0x36,0x0D,Read,NAK
27.168870890000001,0,0x36,0x33,Write,ACK
27.169023796000001,0,0x36,0xFF,Read,ACK
27.169053265999999,0,0x36,0xFF,Read,NAK
27.169240137999999,0,0x36,0x34,Write,ACK
27.169392018000000,0,0x36,0x28,Read,ACK
27.169421503999999,0,0x36,0x1E,Read,NAK
27.169608155999999,0,0x36,0x35,Write,ACK
27.169759897999999,0,0x36,0x8C,Read,ACK
27.169789403999999,0,0x36,0x11,Read,NAK
27.169979072000000,0,0x36,0x36,Write,ACK
27.170134057999999,0,0x36,0x0B,Read,ACK
27.170163536000000,0,0x36,0x0E,Read,NAK
27.170351656000001,0,0x36,0x37,Write,ACK
27.170503396000001,0,0x36,0xE0,Read,ACK
27.170532900000001,0,0x36,0x05,Read,NAK
27.170719760000001,0,0x36,0x38,Write,ACK
27.170871829999999,0,0x36,0x27,Read,ACK
27.170901312000002,0,0x36,0x00,Read,NAK
27.171134624000000,0,0x36,0x39,Write,ACK
27.171289514000001,0,0x36,0x20,Read,ACK
27.171319000000000,0,0x36,0x15,Read,NAK
27.171507622000000,0,0x36,0x3A,Write,ACK
27.171659724000001,0,0x36,0x54,Read,ACK
27.171689178000001,0,0x36,0x7D,Read,NAK
27.171875627999999,0,0x36,0x3B,Write,ACK
27.172028019999999,0,0x36,0x51,Read,ACK
27.172057482000000,0,0x36,0xFF,Read,NAK
27.172245193999998,0,0x36,0x3C,Write,ACK
27.172396524000000,0,0x36,0x80,Read,ACK
27.172426026000000,0,0x36,0x16,Read,NAK
27.172613082000002,0,0x36,0x3D,Write,ACK
27.172764870000002,0,0x36,0x00,Read,ACK
27.172794331999999,0,0x36,0x10,Read,NAK
27.172980874000000,0,0x36,0x3E,Write,ACK
27.173132121999998,0,0x36,0x6E,Read,ACK
27.173161594000000,0,0x36,0x00,Read,NAK
27.173347620000001,0,0x36,0x3F,Write,ACK
27.173469764000000,,0x1B,,Write,NAK
27.173496480000001,0,0x1B,0x00,Write,ACK
27.173525860000002,0,0x1B,0x70,Write,ACK
27.179805903999998,0,0x36,0x40,Write,ACK
27.180026607999999,0,0x36,0xFC,Read,ACK
27.180056109999999,0,0x36,0x07,Read,NAK
27.180248387999999,0,0x36,0x41,Write,ACK
27.180398180000001,0,0x36,0x00,Read,ACK
27.180427657999999,0,0x36,0x00,Read,NAK
27.180604830000000,0,0x36,0x42,Write,ACK
27.180752532000000,0,0x36,0x00,Read,ACK
27.180782010000001,0,0x36,0x0B,Read,NAK
27.180957618000001,0,0x36,0x43,Write,ACK
27.181103975999999,0,0x36,0x52,Read,ACK
27.181133442000000,0,0x36,0x02,Read,NAK
27.181309882000001,0,0x36,0x44,Write,ACK
27.181456134000001,0,0x36,0x60,Read,ACK
27.181485605999999,0,0x36,0xD6,Read,NAK
27.181662366000001,0,0x36,0x45,Write,ACK
27.181807800000001,0,0x36,0x63,Read,ACK
27.181837252000001,0,0x36,0x04,Read,NAK
27.182012453999999,0,0x36,0x46,Write,ACK
27.182158598000001,0,0x36,0x00,Read,ACK
27.182188075999999,0,0x36,0x32,Read,NAK
27.182363572000000,0,0x36,0x47,Write,ACK
27.182510535999999,0,0x36,0x8D,Read,ACK
27.182540004000000,0,0x36,0xFF,Read,NAK
27.182716478000000,0,0x36,0x48,Write,ACK
27.182863338000001,0,0x36,0xEE,Read,ACK
27.182892826000000,0,0x36,0x5F,Read,NAK
27.183143957999999,0,0x36,0x49,Write,ACK
27.183294578000002,0,0x36,0x40,Read,ACK
27.183320731999999,0,0x36,0x11,Read,ACK
27.183502688000001,0,0x36,0x4A,Write,ACK
27.183649861999999,0,0x36,0xF4,Read,ACK
27.183679349999998,0,0x36,0x10,Read,NAK
27.183855252000001,0,0x36,0x4B,Write,ACK
27.184002228000001,0,0x36,0x6F,Read,ACK
27.184031707999999,0,0x36,0x05,Read,NAK
27.184207317999999,0,0x36,0x4C,Write,ACK
27.184354912000000,0,0x36,0xFF,Read,ACK
27.184384380000001,0,0x36,0xFF,Read,NAK
27.184561144000000,0,0x36,0x4D,Write,ACK
27.184708120000000,0,0x36,0xFF,Read,ACK
27.184737592000001,0,0x36,0xFF,Read,NAK
27.184914679999999,0,0x36,0x4E,Write,ACK
27.185061636000000,0,0x36,0xC7,Read,ACK
27.185091138000001,0,0x36,0x5D,Read,NAK
27.185493604000001,0,0x36,0x4F,Write,ACK
27.185645560000001,0,0x36,0x8D,Read,ACK
27.185675062000001,0,0x36,0x11,Read,NAK
27.191159528000000,0,0x36,0xB0,Write,ACK
27.191334858000001,0,0x36,0x00,Read,ACK
27.191364340000000,0,0x36,0x00,Read,NAK
27.191539098000000,0,0x36,0xB1,Write,ACK
27.191683602000001,0,0x36,0x4E,Read,ACK
27.191713060000001,0,0x36,0x6D,Read,NAK
27.191883961999999,0,0x36,0xB2,Write,ACK
27.192027624000001,0,0x36,0x01,Read,ACK
27.192057118000001,0,0x36,0x00,Read,NAK
27.192229481999998,0,0x36,0xB3,Write,ACK
27.192372094000000,0,0x36,0x33,Read,ACK
27.192401572000001,0,0x36,0x2D,Read,NAK
27.192572689999999,0,0x36,0xB4,Write,ACK
27.192715906000000,0,0x36,0x80,Read,ACK
27.192745402000000,0,0x36,0x7F,Read,NAK
27.192916925999999,0,0x36,0xB5,Write,ACK
27.193060182000000,0,0x36,0x05,Read,ACK
27.193089658000002,0,0x36,0x00,Read,NAK
27.193260037999998,0,0x36,0xB6,Write,ACK
27.193402966000001,0,0x36,0x56,Read,ACK
27.193432443999999,0,0x36,0x13,Read,NAK
27.193604193999999,0,0x36,0xB7,Write,ACK
27.193746808000000,0,0x36,0x00,Read,ACK
27.193776272000001,0,0x36,0x06,Read,NAK
27.193946564000001,0,0x36,0xB8,Write,ACK
27.194089374000001,0,0x36,0x00,Read,ACK
27.194118868000000,0,0x36,0x00,Read,NAK
27.194289976000000,0,0x36,0xB9,Write,ACK
27.194433440000001,0,0x36,0x6B,Read,ACK
27.194462922000000,0,0x36,0x00,Read,NAK
27.194634130000001,0,0x36,0xBA,Write,ACK
27.194778526000000,0,0x36,0x0C,Read,ACK
27.194807992000001,0,0x36,0x09,Read,NAK
27.194979199999999,0,0x36,0xBB,Write,ACK
27.195201925999999,0,0x36,0x55,Read,ACK
27.195231400000001,0,0x36,0x00,Read,NAK
27.195419076000000,0,0x36,0xBC,Write,ACK
27.195563975999999,0,0x36,0xFE,Read,ACK
27.195593471999999,0,0x36,0x0C,Read,NAK
27.195813862000001,0,0x36,0xBD,Write,ACK
27.195958770000001,0,0x36,0x04,Read,ACK
27.195988241999999,0,0x36,0x02,Read,NAK
27.196162577999999,0,0x36,0xBE,Write,ACK
27.196308122000001,0,0x36,0x00,Read,ACK
27.196337595999999,0,0x36,0x00,Read,NAK
27.196509752000001,0,0x36,0xBF,Write,ACK
27.196653004000002,0,0x36,0x00,Read,ACK
27.196682473999999,0,0x36,0x00,Read,NAK
27.203180836000001,0,0x36,0xD0,Write,ACK
27.203513336000000,0,0x36,0x39,Read,ACK
27.203542832000000,0,0x36,0x07,Read,NAK
27.203733920000001,0,0x36,0xD1,Write,ACK
27.203883525999998,0,0x36,0x00,Read,ACK
27.203912998000000,0,0x36,0x00,Read,NAK
27.204363900000001,0,0x36,0xD2,Write,ACK
27.204484541999999,,0x3B,,Write,NAK
27.204511210000000,0,0x3B,0x00,Write,ACK
27.204540586000000,0,0x3B,0x00,Write,ACK
27.204723145999999,0,0x36,0xD3,Write,ACK
27.204871191999999,0,0x36,0x00,Read,ACK
27.204900664000000,0,0x36,0x00,Read,NAK
27.205077392000000,0,0x36,0xD4,Write,ACK
27.205224183999999,0,0x36,0x00,Read,ACK
27.205253662000001,0,0x36,0x00,Read,NAK
27.205429886000001,0,0x36,0xD5,Write,ACK
27.205578228000000,0,0x36,0x00,Read,ACK
27.205607707999999,0,0x36,0x00,Read,NAK
27.205783604000001,0,0x36,0xD6,Write,ACK
27.205931027999998,0,0x36,0x00,Read,ACK
27.205960508000000,0,0x36,0x00,Read,NAK
27.206136824000001,0,0x36,0xD7,Write,ACK
27.206283066000001,0,0x36,0x00,Read,ACK
27.206312556000000,0,0x36,0x00,Read,NAK
27.206488572000001,0,0x36,0xD8,Write,ACK
27.206635458000001,0,0x36,0x00,Read,ACK
27.206664940000000,0,0x36,0x00,Read,NAK
27.206840738000000,0,0x36,0xD9,Write,ACK
27.206987091999999,0,0x36,0x00,Read,ACK
27.207016582000001,0,0x36,0x00,Read,NAK
27.207199364000001,0,0x36,0xDA,Write,ACK
27.207337815999999,0,0x36,0x00,Read,ACK
27.207367296000001,0,0x36,0x00,Read,NAK
27.207544336000002,0,0x36,0xDB,Write,ACK
27.207690826000000,0,0x36,0x10,Read,ACK
27.207720299999998,0,0x36,0x00,Read,NAK
27.207896724000001,0,0x36,0xDC,Write,ACK
27.208042991999999,0,0x36,0x12,Read,ACK
27.208072454000000,0,0x36,0x00,Read,NAK
27.208245154000000,0,0x33,0x6E,Write,NAK
27.208393883999999,0,0x36,0xFF,Read,ACK
27.208423358000001,0,0x36,0xFF,Read,NAK
27.208598676000001,0,0x36,0xDE,Write,ACK
27.208745757999999,0,0x36,0x27,Read,ACK
27.208775244000002,0,0x36,0x60,Read,NAK
27.208951549999998,0,0x36,0xDF,Write,ACK
27.209098010000002,0,0x36,0xCE,Read,ACK
27.209127469999999,0,0x36,0x10,Read,NAK
27.215280673999999,0,0x36,0xE0,Write,ACK
27.215432790000001,0,0x36,0x54,Read,ACK
27.215462250000002,0,0x36,0x07,Read,NAK
27.215641086000002,0,0x36,0xE1,Write,ACK
27.215789738000002,0,0x36,0x09,Read,ACK
27.215819207999999,0,0x36,0x00,Read,NAK
27.215996063999999,0,0x36,0xE2,Write,ACK
27.216143989999999,0,0x36,0x2D,Read,ACK
27.216173487999999,0,0x36,0x06,Read,ACK
27.216350523999999,0,0x36,0xE3,Write,ACK
27.216497000000000,0,0x36,0x2D,Read,ACK
27.216526458000001,0,0x36,0x03,Read,ACK
27.216702600000001,0,0x36,0xE4,Write,ACK
27.216849239999998,0,0x36,0x94,Read,ACK
27.216878734000002,0,0x36,0x02,Read,NAK
27.217055166000002,0,0x36,0xE5,Write,ACK
27.217201847999998,0,0x36,0x6B,Read,ACK
27.217231338000001,0,0x36,0x00,Read,NAK
27.217408580000001,0,0x36,0xE6,Write,ACK
27.217555676000000,0,0x36,0x2D,Read,ACK
27.217585157999999,0,0x36,0x1A,Read,NAK
27.217761379999999,0,0x36,0xE7,Write,ACK
27.217907850000000,0,0x36,0x0B,Read,ACK
27.217937332000002,0,0x36,0x00,Read,NAK
27.218113548000002,0,0x36,0xE8,Write,ACK
27.218260428000001,0,0x36,0xBE,Read,ACK
27.218289911999999,0,0x36,0x4A,Read,NAK
27.218466458000002,0,0x36,0xE9,Write,ACK
27.218613533999999,0,0x36,0x00,Read,ACK
27.218643018000002,0,0x36,0x00,Read,NAK
27.218819226000001,0,0x36,0xEA,Write,ACK
27.218965787999998,0,0x36,0x90,Read,ACK
27.218995283999998,0,0x36,0x46,Read,NAK
27.219178161999999,0,0x36,0xEB,Write,ACK
27.219316522000000,0,0x36,0x00,Read,ACK
27.219345986000000,0,0x36,0x00,Read,NAK
27.219524610000001,0,0x36,0xEC,Write,ACK
27.219670050000001,0,0x36,0x00,Read,ACK
27.219699513999998,0,0x36,0x40,Read,NAK
27.219876886000002,0,0x36,0xED,Write,ACK
27.220056375999999,0,0x36,0x00,Read,ACK
27.220085860000001,0,0x36,0x00,Read,NAK
27.220265414000000,0,0x36,0xEE,Write,ACK
27.220412602000000,0,0x36,0x10,Read,ACK
27.220442064000000,0,0x36,0xA2,Read,NAK
27.220617054000002,0,0x36,0xEF,Write,ACK
27.220764154000001,0,0x36,0x20,Read,ACK
27.220793612000001,0,0x36,0x08,Read,NAK
27.227578957999999,0,0x36,0xF0,Write,ACK
27.227751860000001,0,0x36,0xFF,Read,ACK
27.227781340000000,0,0x36,0xFF,Read,NAK
27.227982367999999,0,0x36,0xF1,Write,ACK
27.228133413999998,0,0x36,0xFF,Read,ACK
27.228162886000000,0,0x36,0xFF,Read,NAK
27.228341084000000,0,0x36,0xF2,Write,ACK
27.228489121999999,0,0x36,0xFF,Read,ACK
27.228518598000001,0,0x36,0xFF,Read,NAK
27.228695355999999,0,0x36,0xF3,Write,ACK
27.228841194000001,0,0x36,0xFF,Read,ACK
27.228870663999999,0,0x36,0xFF,Read,NAK
27.229047004000002,0,0x36,0xF4,Write,ACK
27.229193982000002,0,0x36,0xB6,Read,ACK
27.229223472000001,0,0x36,0x20,Read,NAK
27.229399902000001,0,0x36,0xF5,Write,ACK
27.229546992000000,0,0x36,0x00,Read,ACK
27.229576464000001,0,0x36,0x00,Read,NAK
27.229752162000000,0,0x36,0xF6,Write,ACK
27.229898956000000,0,0x36,0x00,Read,ACK
27.229928441999999,0,0x36,0x01,Read,NAK
27.230104334000000,0,0x36,0xF7,Write,ACK
27.230252146000002,0,0x36,0x4E,Read,ACK
27.230281620000000,0,0x36,0xF8,Read,NAK
27.230457544000000,0,0x36,0xF8,Write,ACK
27.230604719999999,0,0x36,0xA6,Read,ACK
27.230634200000001,0,0x36,0x1F,Read,NAK
27.230809711999999,0,0x36,0xF9,Write,ACK
27.230955657999999,0,0x36,0x7F,Read,ACK
27.230985142000002,0,0x36,0x5D,Read,NAK
27.231167924000001,0,0x36,0xFA,Write,ACK
27.231309910000000,0,0x36,0x3D,Read,ACK
27.231339382000002,0,0x36,0x00,Read,NAK
27.231517692000001,0,0x36,0xFB,Write,ACK
27.231664475999999,0,0x36,0x5F,Read,ACK
27.231693942000000,0,0x36,0xD6,Read,NAK
27.231871108000000,0,0x36,0xFC,Write,ACK
27.232017794000001,0,0x36,0x1F,Read,ACK
27.232047271999999,0,0x36,0x00,Read,NAK
27.232222977999999,0,0x36,0xFD,Write,ACK
27.232369758000001,0,0x36,0x08,Read,ACK
27.232395894000000,0,0x36,0x14,Read,NAK
27.232575239999999,0,0x36,0xFE,Write,ACK
27.232721714000000,0,0x36,0x60,Read,ACK
27.232751172000000,0,0x36,0xDA,Read,NAK
27.232927096000001,0,0x36,0xFF,Write,ACK
27.233073751999999,0,0x36,0xEE,Read,ACK
27.233103256000000,0,0x36,0x5F,Read,NAK
27.239225294000001,0,0x36,0x38,Write,ACK
27.239377688000001,0,0x36,0x27,Read,ACK
27.239407174000000,0,0x36,0x00,Read,NAK
27.239588919999999,0,0x36,0x39,Write,ACK
27.239733923999999,0,0x36,0x20,Read,ACK
27.239763400000001,0,0x36,0x15,Read,NAK
27.239939849999999,0,0x36,0x18,Write,ACK
27.240085352000001,0,0x36,0x8F,Read,ACK
27.240114825999999,0,0x36,0x11,Read,NAK
27.240287729999999,0,0x36,0x23,Write,ACK
27.240432097999999,0,0x36,0x8D,Read,ACK
27.240461578000001,0,0x36,0x11,Read,NAK
27.240634698000001,0,0x36,0x35,Write,ACK
27.240779260000000,0,0x36,0x8C,Read,ACK
27.240808754000000,0,0x36,0x11,Read,NAK
27.240986782000000,0,0x36,0x43,Write,ACK
27.241132067999999,0,0x36,0x52,Read,ACK
27.241161563999999,0,0x36,0x02,Read,NAK
27.241337686000001,0,0x36,0x4B,Write,ACK
27.241482260000002,0,0x36,0x6F,Read,ACK
27.241511723999999,0,0x36,0x05,Read,NAK
27.241687322000001,0,0x36,0xB1,Write,ACK
27.241802763999999,,0x37,,Write,NAK
27.241829425999999,0,0x37,0x27,Write,NAK
27.241858791999999,0,0x37,0x36,Write,NAK
27.242038661999999,0,0x36,0xD0,Write,ACK
27.242182543999999,0,0x36,0x64,Read,ACK
27.242212018000000,0,0x36,0x0A,Read,NAK
27.242388032000001,0,0x36,0xB3,Write,ACK
27.242533232000000,0,0x36,0x85,Read,ACK
27.242562727999999,0,0x36,0x2C,Read,NAK
27.242737699999999,0,0x36,0x4D,Write,ACK
27.242883020000001,0,0x36,0xFF,Read,ACK
27.242912472000000,0,0x36,0xFF,Read,NAK
27.243323300000000,0,0x36,0x0A,Write,ACK
27.243473288000001,0,0x36,0xCA,Read,ACK
27.243502776000000,0,0x36,0x00,Read,NAK
27.243702444000000,0,0x36,0x0B,Write,ACK
27.243849524000002,0,0x36,0x51,Read,ACK
27.243878980000002,0,0x36,0xFF,Read,NAK
27.244055459999998,0,0x36,0x09,Write,ACK
27.244200144000001,0,0x36,0x60,Read,ACK
27.244229592000000,0,0x36,0xDA,Read,NAK
27.244428238000001,0,0x36,0x4B,Write,ACK
27.244575118000000,0,0x36,0x6F,Read,ACK
27.244604593999998,0,0x36,0x05,Read,NAK
27.244784469999999,0,0x36,0x43,Write,ACK
27.244930713999999,0,0x36,0x52,Read,ACK
27.244960200000001,0,0x36,0x02,Read,NAK
27.273273398000001,0,0x36,0x08,Write,ACK
27.273303196000001,0,0x36,0x19,Write,ACK
27.273332981999999,0,0x36,0x1E,Write,ACK
27.273554954000002,0,0x36,0x06,Write,ACK
27.273710036000001,0,0x36,0x24,Read,ACK
27.273739528000000,0,0x36,0x60,Read,NAK
27.273931370000000,0,0x36,0x09,Write,ACK
27.274084408000000,0,0x36,0x60,Read,ACK
27.274113847999999,0,0x36,0xDA,Read,NAK
27.274305316000000,0,0x36,0x0B,Write,ACK
27.274459258000000,0,0x36,0x57,Read,ACK
27.274488728000001,0,0x36,0xFF,Read,NAK
27.274679469999999,0,0x36,0x09,Write,ACK
27.274832698000001,0,0x36,0x60,Read,ACK
27.274862154000001,0,0x36,0xDA,Read,NAK
27.275275900000000,0,0x36,0x03,Write,ACK
27.275687126000001,0,0x36,0x24,Read,ACK
27.275716601999999,0,0x36,0x60,Read,NAK
27.275933254000002,0,0x36,0x05,Write,ACK
27.276087497999999,0,0x36,0xDE,Read,ACK
27.276116999999999,0,0x36,0x10,Read,NAK
27.276308841999999,0,0x36,0x4D,Write,ACK
27.276461338000001,0,0x36,0xFF,Read,ACK
27.276490819999999,0,0x36,0xFF,Read,NAK
27.276869959999999,0,0x69,0xBD,Write,ACK
27.277026818000000,0,0x69,0xEC,Read,NAK
27.277216381999999,0,0x69,0xBD,Write,ACK
27.277246200000000,0,0x69,0xED,Write,ACK
27.277432728000001,0,0x69,0xB4,Write,ACK
27.277585762000001,0,0x69,0x33,Read,NAK
27.277799682000001,0,0x69,0xB3,Write,ACK
27.277953742000001,0,0x69,0xE0,Read,NAK
27.278166236000001,0,0x69,0xB4,Write,ACK
27.278320833999999,0,0x69,0x33,Read,NAK
27.278524546000000,0,0x69,0xB3,Write,ACK
27.278678079999999,0,0x69,0xE0,Read,NAK
27.278871083999999,0,0x69,0xB4,Write,ACK
27.279025065999999,0,0x69,0x33,Read,NAK
27.279219300000001,0,0x69,0xB7,Write,ACK
27.279373895999999,0,0x69,0x15,Read,NAK
27.279569173999999,0,0x36,0xD0,Write,ACK
27.279722838000001,0,0x36,0x64,Read,ACK
27.279752318000000,0,0x36,0x0A,Read,NAK
27.279947492000002,0,0x36,0xB3,Write,ACK
27.280101454000000,0,0x36,0x85,Read,ACK
27.280130937999999,0,0x36,0x2C,Read,NAK
27.280377252000001,0,0x69,0xB1,Write,ACK
27.280532686000001,0,0x69,0x7A,Read,NAK
27.280726179999998,0,0x69,0xB2,Write,ACK
27.280879106000000,0,0x69,0xDF,Read,NAK
27.281068172000001,0,0x68,0x59,Read,NAK
27.281224514000002,0,0x69,0xE0,Read,NAK
27.281415014000000,0,0x69,0xB4,Write,ACK
27.281567836000001,0,0x69,0x33,Read,NAK
27.281758530000001,0,0x69,0xB5,Write,ACK
27.281911158000000,0,0x69,0x00,Read,NAK
27.282101740000002,0,0x69,0xB6,Write,ACK
27.282255387999999,0,0x69,0xFF,Read,NAK
27.282446199999999,0,0x69,0xB7,Write,ACK
27.282599558000001,0,0x69,0x15,Read,NAK
27.282790974000001,0,0x69,0xB8,Write,ACK
27.282944310000001,0,0x69,0x38,Read,NAK
27.283161258000000,0,0x69,0xB9,Write,ACK
27.283352317999999,0,0x69,0x4B,Read,NAK
27.283540410000001,0,0x69,0xBA,Write,ACK
27.283686975999998,0,0x69,0x9F,Read,NAK
27.283864139999999,0,0x69,0xBB,Write,ACK
27.284009374000000,0,0x69,0x16,Read,NAK
27.284186009999999,0,0x69,0xBC,Write,ACK
27.284330810000000,0,0x69,0x60,Read,NAK
27.284506491999998,0,0x69,0xBD,Write,ACK
27.284651914000001,0,0x69,0xEC,Read,NAK
27.284826983999999,0,0x69,0xBE,Write,ACK
27.284971098000000,0,0x69,0x34,Read,NAK
27.285147718000001,0,0x69,0xBF,Write,ACK
27.285292426000002,0,0x69,0x00,Read,NAK
27.285468114000000,0,0x69,0xC0,Write,ACK
27.285613011999999,0,0x69,0x92,Read,NAK
27.285788721999999,0,0x69,0xC1,Write,ACK
27.285933642000000,0,0x69,0x10,Read,NAK
27.286110266000001,0,0x69,0xC2,Write,ACK
27.286254562000000,0,0x69,0x00,Read,NAK
27.286429729999998,0,0x69,0xC3,Write,ACK
27.286623609999999,0,0x69,0x68,Read,NAK
27.286831377999999,0,0x69,0xB7,Write,ACK
27.286977958000001,0,0x69,0x15,Read,NAK
27.287158227999999,0,0x69,0xBC,Write,ACK
27.287290624000001,0,0x69,0x60,Read,NAK
27.287739252000001,0,0x36,0x0A,Write,ACK
27.287885173999999,0,0x36,0xCA,Read,ACK
27.287914665999999,0,0x36,0x00,Read,NAK
27.288115181999999,0,0x36,0x0B,Write,ACK
27.288258402000000,0,0x36,0x57,Read,ACK
27.288287860000001,0,0x36,0xFF,Read,NAK
27.288461508000001,0,0x36,0x09,Write,ACK
27.288603378000001,0,0x36,0x60,Read,ACK
27.288632851999999,0,0x36,0xDA,Read,NAK
27.288847830000002,0,0x36,0x43,Write,ACK
27.288991904000000,0,0x36,0x52,Read,ACK
27.289021374000001,0,0x36,0x02,Read,NAK
27.289204592000001,0,0x36,0x4B,Write,ACK
27.289347618000001,0,0x36,0x6F,Read,ACK
27.289377074000001,0,0x36,0x05,Read,NAK
27.290879484000001,0,0x36,0x0B,Write,ACK
27.291196870000000,0,0x36,0x57,Read,ACK
27.291226334000001,0,0x36,0xFF,Read,NAK
27.291452589999999,0,0x36,0x09,Write,ACK
27.291606344000002,0,0x36,0x60,Read,ACK
27.291635800000002,0,0x36,0xDA,Read,NAK
27.565532999999999,,0x7F,,Read,NAK
27.565701350000001,0,0x7F,0xFF,Read,NAK
27.565786650000000,0,0x7F,0xFF,Read,NAK
27.565830943999998,0,0x7F,0xFF,Read,NAK
27.565898317999999,0,0x7F,0xFF,Read,NAK
27.565970593999999,0,0x7F,0xFF,Read,NAK
27.566071346000001,0,0x7F,0xFF,Read,NAK
27.566239249999999,0,0x7F,0xFF,Read,NAK
27.566508043999999,0,0x7F,0xFF,Read,NAK
37.289972059999997,0,0x36,0x09,Write,ACK
37.290650583999998,0,0x36,0x64,Read,ACK
37.290680029999997,0,0x36,0xDA,Read,NAK
37.291842803999998,0,0x36,0x19,Write,ACK
37.292317859999997,0,0x36,0xEA,Read,ACK
37.292347337999999,0,0x36,0xD6,Read,NAK
37.293486326000000,0,0x36,0xFB,Write,ACK
37.293962792000002,0,0x36,0x68,Read,ACK
37.293992246000002,0,0x36,0xD6,Read,NAK
37.295106025999999,0,0x36,0x00,Write,ACK
37.295933077999997,0,0x36,0x80,Read,ACK
37.295962572000001,0,0x36,0x00,Read,NAK
37.297081878000000,0,0x36,0x01,Write,ACK
37.297558504000001,0,0x36,0xA0,Read,ACK
37.297587986000003,0,0x36,0xFF,Read,NAK
37.298715012000002,0,0x36,0x02,Write,ACK
37.299165182000003,0,0x36,0x80,Read,ACK
37.299194675999999,0,0x36,0x7F,Read,NAK
37.300318140000002,0,0x36,0x03,Write,ACK
37.300764182000002,,0x37,,Write,NAK
37.300790833999997,0,0x37,0x00,Write,NAK
37.300820207999998,0,0x37,0x7F,Write,NAK
37.301946919999999,0,0x36,0x04,Write,ACK
37.302425542000002,0,0x36,0x00,Read,ACK
37.302455010000003,0,0x36,0x19,Read,NAK
37.303561094000003,0,0x36,0x05,Write,ACK
37.304020322000000,0,0x36,0xDE,Read,ACK
37.304049829999997,0,0x36,0x10,Read,NAK
37.305169337999999,0,0x36,0x06,Write,ACK
37.305644110000003,0,0x36,0x24,Read,ACK
37.305673572000003,0,0x36,0x60,Read,NAK
37.306771324000003,0,0x36,0x07,Write,ACK
37.307258478000001,0,0x36,0xE7,Read,ACK
37.307287967999997,0,0x36,0x63,Read,NAK
37.308411323999998,0,0x36,0x08,Write,ACK
37.308887466000002,0,0x36,0x19,Read,ACK
37.308916944000003,0,0x36,0x1E,Read,NAK
37.310040827999998,0,0x36,0x09,Write,ACK
37.310607160000004,0,0x36,0x64,Read,ACK
37.310636615999996,0,0x36,0xDA,Read,NAK
37.311593981999998,0,0x36,0x0A,Write,ACK
37.312580584000003,0,0x36,0xCA,Read,ACK
37.312610055999997,0,0x36,0x00,Read,NAK
37.313719059999997,0,0x36,0x0B,Write,ACK
37.314757661999998,0,0x36,0x2A,Read,ACK
37.314787129999999,0,0x36,0x00,Read,NAK
37.315034701999998,0,0x36,0x0C,Write,ACK
37.315493453999999,0,0x36,0x0B,Read,ACK
37.315522932000000,0,0x36,0x00,Read,NAK
37.315734161999998,0,0x36,0x0D,Write,ACK
37.315894045999997,0,0x36,0x7B,Read,ACK
37.315923534000000,0,0x36,0x5F,Read,NAK
37.316122567999997,0,0x36,0x0E,Write,ACK
37.316280910000003,0,0x36,0x2D,Read,ACK
37.316310391999998,0,0x36,0x60,Read,NAK
37.316508069999998,0,0x36,0x0F,Write,ACK
37.316666601999998,0,0x36,0xE0,Read,ACK
37.316696088000000,0,0x36,0x10,Read,NAK
37.322946878000003,0,0x36,0x10,Write,ACK
37.323120084000003,0,0x36,0x82,Read,ACK
37.323149586000000,0,0x36,0x11,Read,NAK
37.323352468000003,0,0x36,0x11,Write,ACK
37.323511521999997,0,0x36,0xFF,Read,ACK
37.323540995999998,0,0x36,0xFF,Read,NAK
37.323740379999997,0,0x36,0x12,Write,ACK
37.323901515999999,0,0x36,0x00,Read,ACK
37.323930998000002,0,0x36,0x28,Read,NAK
37.324128993999999,0,0x36,0x13,Write,ACK
37.324287744000003,0,0x36,0x00,Read,ACK
37.324317221999998,0,0x36,0x5B,Read,NAK
37.324514592000000,0,0x36,0x14,Write,ACK
37.324673230000002,0,0x36,0x9F,Read,ACK
37.324702713999997,0,0x36,0x06,Read,NAK
37.324900608000000,0,0x36,0x15,Write,ACK
37.325059582000002,0,0x36,0x48,Read,ACK
37.325089048000002,0,0x36,0x01,Read,NAK
37.325286839999997,0,0x36,0x16,Write,ACK
37.325445272000003,0,0x36,0x3A,Read,ACK
37.325474751999998,0,0x36,0x1E,Read,NAK
37.325671302000003,0,0x36,0x17,Write,ACK
37.325830050000000,0,0x36,0x00,Read,ACK
37.325859520000002,0,0x36,0x00,Read,NAK
37.326056090000002,0,0x36,0x18,Write,ACK
37.326214188000002,0,0x36,0x8F,Read,ACK
37.326243685999998,0,0x36,0x11,Read,NAK
37.326439806000003,0,0x36,0x19,Write,ACK
37.326604787999997,0,0x36,0xEA,Read,ACK
37.326634265999999,0,0x36,0xD6,Read,NAK
37.326835420000002,0,0x36,0x1A,Write,ACK
37.326995818000000,0,0x36,0x16,Read,ACK
37.327025304000003,0,0x36,0x1F,Read,NAK
37.327231744000002,0,0x36,0x1B,Write,ACK
37.327389224000001,0,0x36,0xBC,Read,ACK
37.327418698000002,0,0x36,0xDA,Read,NAK
37.327616399999997,0,0x36,0x1C,Write,ACK
37.327774712000000,0,0x36,0xED,Read,ACK
37.327804217999997,0,0x36,0x01,Read,NAK
37.327999906000002,0,0x36,0x1D,Write,ACK
37.328159200000002,0,0x36,0x14,Read,ACK
37.328188656000002,0,0x36,0x03,Read,NAK
37.328387403999997,0,0x36,0x1E,Write,ACK
37.328545402000003,0,0x36,0xC0,Read,ACK
37.328574902000000,0,0x36,0x08,Read,NAK
37.328772174000001,0,0x36,0x1F,Write,ACK
37.328930604000000,0,0x36,0xD6,Read,ACK
37.328960076000001,0,0x36,0x10,Read,NAK
37.335297332000003,0,0x36,0x20,Write,ACK
37.335480654000001,0,0x36,0x00,Read,ACK
37.335510136000003,0,0x36,0x00,Read,NAK
37.335715741999998,0,0x36,0x21,Write,ACK
37.335876030000001,0,0x36,0x00,Read,ACK
37.335905541999999,0,0x36,0x62,Read,NAK
37.336103741999999,0,0x36,0x22,Write,ACK
37.336263117999998,0,0x36,0x00,Read,ACK
37.336292594000000,0,0x36,0x16,Read,NAK
37.336490388000001,0,0x36,0x23,Write,ACK
37.336649014000002,0,0x36,0x8D,Read,ACK
37.336678505999998,0,0x36,0x11,Read,NAK
37.336875569999997,0,0x36,0x24,Write,ACK
37.337034838000001,0,0x36,0x03,Read,ACK
37.337064318000003,0,0x36,0x14,Read,NAK
37.337261593999997,0,0x36,0x25,Write,ACK
37.337420655999999,0,0x36,0x05,Read,ACK
37.337450126000000,0,0x36,0x1E,Read,NAK
37.337647920000002,0,0x36,0x26,Write,ACK
37.337807413999997,0,0x36,0x3C,Read,ACK
37.337836883999998,0,0x36,0x1E,Read,NAK
37.338033322000001,0,0x36,0x27,Write,ACK
37.338192073999998,0,0x36,0x54,Read,ACK
37.338221546000000,0,0x36,0x7F,Read,NAK
37.338418824000001,0,0x36,0x28,Write,ACK
37.338638895999999,0,0x36,0x06,Read,ACK
37.338668386000002,0,0x36,0x26,Read,NAK
37.338873477999996,0,0x36,0x29,Write,ACK
37.339031898000002,0,0x36,0xA4,Read,ACK
37.339061383999997,0,0x36,0xCE,Read,NAK
37.339258254000001,0,0x36,0x2A,Write,ACK
37.339417728000001,0,0x36,0x3C,Read,ACK
37.339447196000002,0,0x36,0x04,Read,NAK
37.339643434000003,0,0x36,0x2B,Write,ACK
37.339802610000000,0,0x36,0x70,Read,ACK
37.339832086000001,0,0x36,0x38,Read,NAK
37.340029250000001,0,0x36,0x2C,Write,ACK
37.340187663999998,0,0x36,0xE1,Read,ACK
37.340217140000000,0,0x36,0xE3,Read,NAK
37.340414228000000,0,0x36,0x2D,Write,ACK
37.340572666000000,0,0x36,0x0E,Read,ACK
37.340602154000003,0,0x36,0x29,Read,NAK
37.340799320000002,0,0x36,0x2E,Write,ACK
37.340958372000003,0,0x36,0x00,Read,ACK
37.340987857999998,0,0x36,0x04,Read,NAK
37.341184400000003,0,0x36,0x2F,Write,ACK
37.341342822000001,0,0x36,0x01,Read,ACK
37.341372307999997,0,0x36,0x00,Read,NAK
37.346884797999998,0,0x36,0x30,Write,ACK
37.347056365999997,0,0x36,0x40,Read,ACK
37.347085839999998,0,0x36,0x0E,Read,NAK
37.347282905999997,0,0x36,0x31,Write,ACK
37.347438820000001,0,0x36,0x9B,Read,ACK
37.347468315999997,0,0x36,0x08,Read,NAK
37.347661649999999,0,0x36,0x32,Write,ACK
37.347817452000001,0,0x36,0x00,Read,ACK
37.347846936000003,0,0x36,0x0D,Read,NAK
37.348039929999999,0,0x36,0x33,Write,ACK
37.348195234000002,0,0x36,0xFF,Read,ACK
37.348224719999997,0,0x36,0xFF,Read,NAK
37.348417621999999,0,0x36,0x34,Write,ACK
37.348573678000001,0,0x36,0x0F,Read,NAK
37.348599825999997,0,0x36,0x0F,Read,ACK
37.348795424000002,0,0x36,0x35,Write,ACK
37.348951237999998,0,0x36,0x8C,Read,ACK
37.348980728000001,0,0x36,0x11,Read,NAK
37.349172586000002,0,0x36,0x36,Write,ACK
37.349328436000000,0,0x36,0x0B,Read,ACK
37.349357910000002,0,0x36,0x0E,Read,NAK
37.349549746000001,0,0x36,0x37,Write,ACK
37.349704420000002,0,0x36,0xE0,Read,ACK
37.349733915999998,0,0x36,0x05,Read,NAK
37.349925566000003,0,0x36,0x38,Write,ACK
37.350080050000003,0,0x36,0x27,Read,ACK
37.350109525999997,0,0x36,0x00,Read,NAK
37.350300451999999,0,0x36,0x39,Write,ACK
37.350455124000000,0,0x36,0x20,Read,ACK
37.350484608000002,0,0x36,0x15,Read,NAK
37.350737914000000,0,0x36,0x3A,Write,ACK
37.350894486000001,0,0x36,0x54,Read,ACK
37.350923956000003,0,0x36,0x7D,Read,NAK
37.351114674000002,0,0x36,0x3B,Write,ACK
37.351268920000003,0,0x36,0xBD,Read,ACK
37.351298395999997,0,0x36,0xFF,Read,NAK
37.351484751999998,0,0x36,0x3C,Write,ACK
37.351637543999999,0,0x36,0x80,Read,ACK
37.351667032000002,0,0x36,0x16,Read,NAK
37.351849000000001,0,0x3B,0x1E,Write,NAK
37.352005456000001,0,0x36,0x00,Read,ACK
37.352034940000003,0,0x36,0x14,Read,NAK
37.352220023999998,0,0x36,0x3E,Write,ACK
37.352374372000000,0,0x36,0xA8,Read,ACK
37.352403866000003,0,0x36,0x00,Read,NAK
37.352589170000002,0,0x36,0x3F,Write,ACK
37.352741780000002,0,0x36,0x00,Read,ACK
37.352771246000003,0,0x36,0xE0,Read,NAK
37.358632569999997,0,0x36,0x40,Write,ACK
37.359021916000003,0,0x36,0xFC,Read,ACK
37.359051420000000,0,0x36,0x07,Read,NAK
37.359247947999997,0,0x36,0x20,Write,NAK
37.359405469999999,0,0x36,0x00,Read,ACK
37.359434931999999,0,0x36,0x00,Read,NAK
37.359621592000003,0,0x36,0x42,Write,ACK
37.359774922000000,0,0x36,0x00,Read,ACK
37.359804398000001,0,0x36,0x0B,Read,NAK
37.359987709999999,0,0x3B,0x21,Write,NAK
37.360143766000000,0,0x36,0x24,Read,ACK
37.360173228000001,0,0x36,0x01,Read,NAK
37.360358736000002,0,0x36,0x62,Write,ACK
37.360511240000001,0,0x36,0x60,Read,ACK
37.360540678000000,0,0x36,0xD6,Read,NAK
37.360727881999999,0,0x36,0x45,Write,ACK
37.360880686000002,0,0x36,0x63,Read,ACK
37.360910158000003,0,0x36,0x04,Read,NAK
37.361095261999999,0,0x36,0x46,Write,ACK
37.361244966000001,0,0x36,0x00,Read,ACK
37.361274311999999,0,0x36,0x19,Read,ACK
37.361463774000001,0,0x36,0x47,Write,ACK
37.361616275999999,0,0x36,0x6C,Read,ACK
37.361645734000000,0,0x36,0xFF,Read,NAK
37.361832084000000,0,0x36,0x48,Write,ACK
37.361985005999998,0,0x36,0x0F,Read,ACK
37.362014483999999,0,0x36,0x60,Read,NAK
37.362199980000000,0,0x36,0x49,Write,ACK
37.362352692000002,0,0x36,0x40,Read,ACK
37.362382171999997,0,0x36,0x22,Read,NAK
37.362571021999997,0,0x36,0x4A,Write,ACK
37.362726510000002,0,0x36,0xFA,Read,ACK
37.362755999999997,0,0x36,0x10,Read,NAK
37.362941394000003,0,0x36,0x4B,Write,ACK
37.363094541999999,0,0x36,0x39,Read,ACK
37.363123999999999,0,0x36,0x03,Read,NAK
37.363310851999998,0,0x36,0x4C,Write,ACK
37.363464192000002,0,0x36,0xFF,Read,ACK
37.363493662000003,0,0x36,0xFF,Read,NAK
37.363679286000000,0,0x36,0x4D,Write,ACK
37.363832387999999,0,0x36,0xFF,Read,ACK
37.363861868000001,0,0x36,0xFF,Read,NAK
37.364047382000003,0,0x36,0x4E,Write,ACK
37.364201037999997,0,0x36,0x28,Read,ACK
37.364230476000003,0,0x36,0x88,Read,NAK
37.364414138000001,0,0x36,0x4F,Write,ACK
37.364566824000001,0,0x36,0x8D,Read,ACK
37.364596319999997,0,0x36,0x11,Read,NAK
37.370646467999997,0,0x36,0xB0,Write,ACK
37.370781899999997,0,0x36,0x00,Read,ACK
37.370811379999999,0,0x36,0x00,Read,NAK
37.370970823999997,0,0x36,0xB1,Write,ACK
37.371103445999999,0,0x36,0x53,Read,ACK
37.371132926000001,0,0x36,0x6D,Read,NAK
37.371291341999999,0,0x36,0xB2,Write,ACK
37.371423845999999,0,0x36,0x01,Read,ACK
37.371453324000001,0,0x36,0x00,Read,NAK
37.371611624000003,0,0x36,0xB3,Write,ACK
37.371744020000001,0,0x36,0xA0,Read,ACK
37.371773502000003,0,0x36,0x2D,Read,NAK
37.371968160000002,0,0x36,0xB4,Write,ACK
37.372101813999997,0,0x36,0x80,Read,ACK
37.372131306000000,0,0x36,0x7F,Read,NAK
37.372291568000001,0,0x36,0xB5,Write,ACK
37.372424201999998,0,0x36,0x05,Read,ACK
37.372453688000000,0,0x36,0x00,Read,NAK
37.372612294000000,0,0x36,0xB6,Write,ACK
37.372745021999997,0,0x36,0x56,Read,ACK
37.372774505999999,0,0x36,0x13,Read,NAK
37.372933000000003,0,0x36,0xB7,Write,ACK
37.373065220000001,0,0x36,0x00,Read,ACK
37.373094686000002,0,0x36,0x06,Read,NAK
37.373252158000000,0,0x36,0xB8,Write,ACK
37.373384258000002,0,0x36,0x00,Read,ACK
37.373413728000003,0,0x36,0x00,Read,NAK
37.373572969999998,0,0x36,0xB9,Write,ACK
37.373705794000003,0,0x36,0x6B,Read,ACK
37.373735275999998,0,0x36,0x00,Read,NAK
37.373894307999997,0,0x36,0xBA,Write,ACK
37.374026499999999,0,0x36,0x0C,Read,ACK
37.374055988000002,0,0x36,0x09,Read,NAK
37.374205193999998,0,0x36,0xBB,Write,ACK
37.374331593999997,0,0x36,0x55,Read,ACK
37.374361073999999,0,0x36,0x00,Read,NAK
37.374552919999999,0,0x36,0xBC,Write,ACK
37.375130394000003,0,0x36,0x28,Read,NAK
37.375156541999999,0,0x36,0x04,Read,ACK
37.375315684000000,0,0x36,0xBD,Write,ACK
37.375412378000000,,0x3B,,Write,NAK
37.375439022000002,0,0x3B,0x02,Write,ACK
37.375468411999996,0,0x3B,0x01,Write,ACK
37.375634300000002,0,0x36,0xBE,Write,ACK
37.375764318000002,0,0x36,0x00,Read,ACK
37.375790481999999,0,0x36,0x00,Read,ACK
37.375959401999999,0,0x36,0xBF,Write,ACK
37.376094102000003,0,0x36,0x00,Read,ACK
37.376123581999998,0,0x36,0x00,Read,NAK
37.382566001999997,0,0x36,0xD0,Write,ACK
37.382699557999999,0,0x36,0x54,Read,ACK
37.382729048000002,0,0x36,0x04,Read,NAK
37.382907242000002,0,0x36,0xD1,Write,ACK
37.383062885999998,0,0x36,0x00,Read,ACK
37.383092355999999,0,0x36,0x00,Read,NAK
37.383259308000000,0,0x36,0xD2,Write,ACK
37.383396826000002,0,0x36,0x00,Read,ACK
37.383426294000003,0,0x36,0x00,Read,NAK
37.383591584000001,0,0x36,0xD3,Write,ACK
37.383729924000001,0,0x36,0x00,Read,ACK
37.383759415999997,0,0x36,0x00,Read,NAK
37.383925099999999,0,0x36,0xD4,Write,ACK
37.384063554000001,0,0x36,0x00,Read,ACK
37.384093036000003,0,0x36,0x00,Read,NAK
37.384257896000001,0,0x36,0xC5,Write,ACK
37.384394995999997,0,0x36,0x00,Read,ACK
37.384424471999999,0,0x36,0x00,Read,NAK
37.384588927999999,0,0x36,0xD6,Write,ACK
37.384726747999999,0,0x36,0x00,Read,ACK
37.384756228000001,0,0x36,0x00,Read,NAK
37.384921609999999,0,0x36,0xD7,Write,ACK
37.385059435999999,0,0x36,0x00,Read,ACK
37.385088914000001,0,0x36,0x00,Read,NAK
37.385254304000000,0,0x36,0xD8,Write,ACK
37.385391718000001,0,0x36,0x00,Read,ACK
37.385421192000003,0,0x36,0x00,Read,ACK
37.385586046000000,0,0x36,0xD9,Write,ACK
37.385723786000000,0,0x36,0x00,Read,ACK
37.385753248000000,0,0x36,0x00,Read,NAK
37.385918115999999,0,0x36,0xDA,Write,ACK
37.386055433999999,0,0x36,0x00,Read,ACK
37.386084894000000,0,0x36,0x00,Read,NAK
37.386249667999998,0,0x36,0xDB,Write,ACK
37.386386551999998,0,0x36,0x10,Read,ACK
37.386416032000000,0,0x36,0x00,Read,NAK
37.386651614000002,0,0x36,0xDC,Write,ACK
37.386808821999999,0,0x36,0x0B,Read,ACK
37.386838306000001,0,0x36,0x00,Read,NAK
37.387025133999998,0,0x36,0xDD,Write,ACK
37.387178583999997,0,0x36,0xFF,Read,ACK
37.387208047999998,0,0x36,0xFF,Read,NAK
37.387392206000001,0,0x36,0xDE,Write,ACK
37.387544409999997,0,0x36,0x27,Read,ACK
37.387573883999998,0,0x36,0x60,Read,NAK
37.387759582000001,0,0x36,0xDF,Write,ACK
37.387911029999998,0,0x36,0xD5,Read,ACK
37.387940520000001,0,0x36,0x10,Read,NAK
37.394600124000000,0,0x36,0xE0,Write,ACK
37.394749812000001,0,0x36,0xE5,Read,ACK
37.394779300000003,0,0x36,0x04,Read,NAK
37.394959810000003,0,0x36,0xE1,Write,ACK
37.395107523999997,0,0x36,0x00,Read,ACK
37.395136995999998,0,0x36,0x00,Read,NAK
37.395315814000000,0,0x36,0xE2,Write,ACK
37.395463231999997,0,0x36,0x00,Read,ACK
37.395492699999998,0,0x36,0xC5,Read,NAK
37.395671116000003,0,0x36,0xE3,Write,ACK
37.395818728000002,0,0x36,0x06,Read,ACK
37.395848217999998,0,0x36,0x00,Read,NAK
37.396026192000001,0,0x36,0xE4,Write,ACK
37.396174027999997,0,0x36,0x06,Read,ACK
37.396203514000000,0,0x36,0x00,Read,NAK
37.396382004000003,0,0x36,0xE5,Write,ACK
37.396529444000002,0,0x36,0x00,Read,ACK
37.396558900000002,0,0x36,0x00,Read,NAK
37.396736888000000,0,0x36,0xE6,Write,ACK
37.396884499999999,0,0x36,0x11,Read,ACK
37.396913968000000,0,0x36,0x77,Read,NAK
37.397092182000002,0,0x36,0xE7,Write,ACK
37.397240205999999,0,0x36,0xFF,Read,ACK
37.397269668000000,0,0x36,0xFF,Read,NAK
37.397447571999997,0,0x36,0xE8,Write,ACK
37.397595180000003,0,0x36,0xBE,Read,ACK
37.397624684000000,0,0x36,0x4A,Read,NAK
37.397804112000003,0,0x36,0xE9,Write,ACK
37.397951648000003,0,0x36,0x00,Read,ACK
37.397981110000003,0,0x36,0x00,Read,NAK
37.398158467999998,0,0x36,0xEA,Write,ACK
37.398306593999997,0,0x36,0x90,Read,ACK
37.398336086000000,0,0x36,0x46,Read,NAK
37.398545532000000,0,0x36,0xEB,Write,ACK
37.398694298000002,0,0x36,0x00,Read,ACK
37.398723783999998,0,0x36,0x00,Read,NAK
37.398914263999998,0,0x36,0xEC,Write,ACK
37.399066990000001,0,0x36,0x00,Read,ACK
37.399096458000002,0,0x36,0x40,Read,NAK
37.399281958000003,0,0x36,0xED,Write,ACK
37.399434880000001,0,0x36,0x00,Read,ACK
37.399464358000003,0,0x36,0x00,Read,NAK
37.399649844000002,0,0x36,0xEE,Write,ACK
37.399801525999997,0,0x36,0x00,Read,ACK
37.399831003999999,0,0x36,0x7D,Read,NAK
37.400016491999999,0,0x36,0xEF,Write,ACK
37.400169834000003,0,0x36,0x20,Read,ACK
37.400199330000000,0,0x36,0x08,Read,NAK
37.406909745999997,0,0x36,0xF0,Write,ACK
37.407358690000002,0,0x36,0xFF,Read,ACK
37.407388175999998,0,0x36,0xFF,Read,NAK
37.407586799999997,0,0x36,0xF1,Write,ACK
37.407741381999998,0,0x36,0xFF,Read,ACK
37.407770855999999,0,0x36,0xFF,Read,NAK
37.407957400000001,0,0x36,0xF2,Write,ACK
37.408110618000002,0,0x36,0xFF,Read,ACK
37.408140101999997,0,0x36,0xFF,Read,NAK
37.408326142000000,0,0x36,0xF3,Write,ACK
37.408479671999999,0,0x36,0xFF,Read,ACK
37.408509148000000,0,0x36,0xFF,Read,NAK
37.408695170000001,0,0x36,0xF4,Write,ACK
37.408847889999997,0,0x36,0xB7,Read,ACK
37.408877373999999,0,0x36,0x20,Read,NAK
37.409063690000004,0,0x36,0xF5,Write,ACK
37.409216620000002,0,0x36,0x00,Read,ACK
37.409242790000000,0,0x36,0x00,Read,ACK
37.409432211999999,0,0x36,0xF6,Write,ACK
37.409584731999999,0,0x36,0x00,Read,ACK
37.409614220000002,0,0x36,0x00,Read,NAK
37.409798985999998,0,0x36,0xF7,Write,ACK
37.409950541999997,0,0x36,0x0C,Read,ACK
37.409979997999997,0,0x36,0xFB,Read,NAK
37.410164262000002,0,0x36,0xF8,Write,ACK
37.410316453999997,0,0x36,0xB8,Read,ACK
37.410345939999999,0,0x36,0x3F,Read,NAK
37.410573808000002,0,0x36,0xF9,Write,ACK
37.410729770000003,0,0x36,0x73,Read,ACK
37.410759239999997,0,0x36,0x5D,Read,NAK
37.410944745999998,0,0x36,0xFA,Write,ACK
37.411097572000003,0,0x36,0x27,Read,ACK
37.411127045999997,0,0x36,0x00,Read,NAK
37.411312735999999,0,0x36,0xFB,Write,ACK
37.411466613999998,0,0x36,0x68,Read,ACK
37.411496059999997,0,0x36,0xD6,Read,NAK
37.411681463999997,0,0x36,0xFC,Write,ACK
37.411834180000000,0,0x36,0x20,Read,ACK
37.411863668000002,0,0x36,0x00,Read,NAK
37.412049367999998,0,0x36,0xFD,Write,ACK
37.412201772000003,0,0x36,0x10,Read,ACK
37.412231239999997,0,0x36,0x29,Read,NAK
37.412417157999997,0,0x36,0xFE,Write,ACK
37.412569668000003,0,0x36,0x44,Read,ACK
37.412599122000003,0,0x36,0xDA,Read,NAK
37.412784535999997,0,0x36,0xFF,Write,ACK
37.412937663999998,0,0x36,0x0F,Read,ACK
37.412967146000000,0,0x36,0x60,Read,NAK
37.418737536000002,0,0x36,0x38,Write,ACK
37.418893676000003,0,0x36,0x27,Read,ACK
37.418923141999997,0,0x36,0x00,Read,NAK
37.419110957999997,0,0x36,0x39,Write,ACK
37.419262207999999,0,0x36,0x20,Read,ACK
37.419291678000000,0,0x36,0x15,Read,NAK
37.419476353999997,0,0x36,0x18,Write,ACK
37.419627167999998,0,0x36,0x8F,Read,ACK
37.419656664000001,0,0x36,0x11,Read,NAK
37.419838835999997,0,0x36,0x23,Write,ACK
37.419988605999997,0,0x36,0x8D,Read,ACK
37.420018104000000,0,0x36,0x11,Read,NAK
37.420199758000003,0,0x36,0x35,Write,ACK
37.420349418000001,0,0x36,0x8C,Read,ACK
37.420378913999997,0,0x36,0x11,Read,NAK
37.420565873999998,0,0x36,0x43,Write,ACK
37.420716914000003,0,0x36,0x0E,Read,ACK
37.420746401999999,0,0x36,0x01,Read,NAK
37.420932110000003,0,0x36,0x4B,Write,ACK
37.421083350000004,0,0x36,0x39,Read,ACK
37.421112831999999,0,0x36,0x03,Read,NAK
37.421299464000001,0,0x36,0xB1,Write,ACK
37.421450106000002,0,0x36,0x52,Read,ACK
37.421479580000003,0,0x36,0x6D,Read,NAK
37.421665590000003,0,0x36,0xD0,Write,ACK
37.421815928000001,0,0x36,0x19,Read,ACK
37.421845400000002,0,0x36,0x05,Read,NAK
37.422029416000001,0,0x36,0xB3,Write,ACK
37.422178891999998,0,0x36,0xBC,Read,ACK
37.422208376000000,0,0x36,0x2D,Read,NAK
37.422396910000003,0,0x36,0x4D,Write,ACK
37.422552211999999,0,0x36,0xFF,Read,ACK
37.422581680000000,0,0x36,0xFF,Read,NAK
37.422843024000002,0,0x36,0x0A,Write,ACK
37.422997711999997,0,0x36,0x83,Read,ACK
37.423027202000000,0,0x36,0x00,Read,NAK
37.423235724000001,0,0x36,0x0B,Write,ACK
37.423386039999997,0,0x36,0x2A,Read,ACK
37.423415528000000,0,0x36,0x00,Read,NAK
37.423599776000003,0,0x36,0x09,Write,ACK
37.423749033999997,0,0x36,0x44,Read,ACK
37.423775224000003,0,0x36,0x6D,Read,ACK
37.423986321999998,0,0x36,0x4B,Write,ACK
37.424135892000002,0,0x36,0x39,Read,ACK
37.424165369999997,0,0x36,0x03,Read,NAK
37.424354106000003,0,0x36,0x43,Write,ACK
37.424504427999999,0,0x36,0x0E,Read,ACK
37.424533894000000,0,0x36,0x01,Read,NAK
37.480685117999997,0,0x36,0x08,Write,ACK
37.480714898000002,0,0x36,0x19,Write,ACK
37.480744684000001,0,0x36,0x1E,Write,ACK
37.481528806000000,0,0x36,0x06,Write,ACK
37.481848706000001,0,0x36,0x24,Read,ACK
37.481878166000001,0,0x36,0x60,Read,NAK
37.482959977999997,0,0x36,0x09,Write,ACK
37.483428291999999,0,0x36,0x44,Read,ACK
37.483457756000000,0,0x36,0xDA,Read,NAK
37.483725986000003,0,0x36,0x0B,Write,ACK
37.483919215999997,0,0x36,0x2C,Read,ACK
37.483948675999997,0,0x36,0x00,Read,NAK
37.484686760000002,0,0x36,0x09,Write,ACK
37.484894879999999,0,0x36,0x44,Read,ACK
37.484924344000000,0,0x36,0xDA,Read,NAK
37.485720876000002,0,0x36,0x06,Write,ACK
37.485933256000003,0,0x36,0x24,Read,ACK
37.485962739999998,0,0x36,0x60,Read,NAK
37.486735922000001,0,0x36,0x05,Write,ACK
37.487404515999998,0,0x36,0xDE,Read,ACK
37.487433998000000,0,0x36,0x10,Read,NAK
37.487684504000001,0,0x36,0x4D,Write,ACK
37.487883967999998,0,0x36,0xFF,Read,ACK
37.487913446000000,0,0x36,0xFF,Read,NAK
37.488847440000001,0,0x69,0xBD,Write,ACK
37.489053488000003,0,0x69,0xEC,Read,NAK
37.489774681999997,0,0x69,0xBD,Write,ACK
37.489804483999997,0,0x69,0xED,Write,ACK
37.490624005999997,0,0x69,0xB4,Write,ACK
37.490812990000002,0,0x69,0x33,Read,NAK
37.491401154000002,0,0x69,0xB3,Write,ACK
37.491597511999998,0,0x69,0xE0,Read,NAK
37.492342974000003,0,0x69,0xB4,Write,ACK
37.492539442000002,0,0x69,0x33,Read,NAK
37.493278019999998,0,0x69,0xB3,Write,NAK
37.493474382000002,0,0x69,0xE0,Read,NAK
37.494198298000001,0,0x69,0xB4,Write,ACK
37.494394757999999,0,0x69,0x33,Read,NAK
37.495121986000001,0,0x69,0xB7,Write,ACK
37.495300542000003,0,0x69,0x15,Read,NAK
37.495926728000001,0,0x36,0xD0,Write,ACK
37.496113940000001,0,0x36,0x19,Read,ACK
37.496143408000002,0,0x36,0x05,Read,NAK
37.496754611999997,0,0x36,0xB3,Write,ACK
37.496946481999998,0,0x36,0xBC,Read,ACK
37.496975972000001,0,0x36,0x2D,Read,NAK
37.497238516000003,0,0x69,0xB1,Write,ACK
37.497393348000003,0,0x69,0x7A,Read,NAK
37.497581959999998,0,0x69,0xB2,Write,ACK
37.497734248000000,0,0x69,0xDF,Read,NAK
37.497920682000000,0,0x69,0xB3,Write,ACK
37.498070800000001,0,0x69,0xE0,Read,NAK
37.498255768000000,0,0x69,0xB4,Write,ACK
37.498406813999999,0,0x69,0x33,Read,NAK
37.498682629999998,0,0x69,0xB5,Write,ACK
37.498834723999998,0,0x69,0x00,Read,NAK
37.499023964000003,0,0x69,0xB6,Write,ACK
37.499175418000000,0,0x69,0xFF,Read,NAK
37.499361553999996,0,0x69,0xB7,Write,ACK
37.499511869999999,0,0x69,0x15,Read,NAK
37.499697251999997,0,0x69,0xB8,Write,ACK
37.499847467999999,0,0x69,0x38,Read,NAK
37.500033277999997,0,0x69,0xB9,Write,ACK
37.500154746000000,,0x69,,Read,NAK
37.500181417999997,0,0x69,0x25,Read,NAK
37.500369087999999,0,0x69,0xBA,Write,ACK
37.500519185999998,0,0x69,0x9F,Read,NAK
37.500704061999997,0,0x69,0xBB,Write,ACK
37.500854912000001,0,0x69,0x16,Read,NAK
37.501039364000000,0,0x69,0xBC,Write,ACK
37.501189689999997,0,0x69,0x60,Read,NAK
37.501374454000000,0,0x69,0xBD,Write,ACK
37.501524986000000,0,0x69,0xEC,Read,NAK
37.501709648000002,0,0x69,0xBE,Write,ACK
37.501860487999998,0,0x69,0x34,Read,NAK
37.502045246000002,0,0x69,0xBF,Write,ACK
37.502195989999997,0,0x69,0x00,Read,NAK
37.502381061999998,0,0x69,0xC0,Write,ACK
37.502536788000000,0,0x69,0x92,Read,NAK
37.502734058000001,0,0x69,0xC1,Write,ACK
37.502888243999998,0,0x69,0x10,Read,NAK
37.503075197999998,0,0x69,0xC2,Write,ACK
37.503223233999996,0,0x69,0x00,Read,NAK
37.503404644000000,0,0x69,0xC3,Write,ACK
37.503552683999999,0,0x69,0x68,Read,NAK
37.503764836000002,0,0x69,0xB7,Write,ACK
37.503914444000003,0,0x69,0x15,Read,NAK
37.504092843999999,0,0x69,0xBC,Write,ACK
37.504241389999997,0,0x69,0x60,Read,NAK
37.504773854000000,0,0x36,0x0A,Write,ACK
37.504928640000003,0,0x36,0x83,Read,ACK
37.504958123999998,0,0x36,0x00,Read,NAK
37.505166852000002,0,0x36,0x0B,Write,ACK
37.505313637999997,0,0x36,0x2C,Read,ACK
37.505343097999997,0,0x36,0x00,Read,NAK
37.505521635999997,0,0x36,0x09,Write,ACK
37.505667043999999,0,0x36,0x44,Read,ACK
37.505696516000000,0,0x36,0xDA,Read,NAK
37.505946293999997,0,0x36,0x43,Write,ACK
37.506093794000002,0,0x36,0x0E,Read,ACK
37.506123268000003,0,0x36,0x01,Read,NAK
37.506315024000003,0,0x36,0x4B,Write,ACK
37.506460443999998,0,0x36,0x39,Read,ACK
37.506489924000000,0,0x36,0x03,Read,NAK
37.508417088000002,0,0x36,0x0B,Write,ACK
37.508610103999999,0,0x36,0x2C,Read,ACK
37.508639582000001,0,0x36,0x00,Read,NAK
37.508832071999997,0,0x36,0x09,Write,ACK
37.508981040000002,0,0x36,0x44,Read,ACK
37.509010490000001,0,0x36,0xDA,Read,NAK
37.825260464000003,,0x7F,,Read,NAK
37.825394934000002,0,0x7F,0xFF,Read,NAK
37.825428711999997,0,0x7F,0xFF,Read,NAK
37.825461349999998,0,0x7F,0xFF,Read,NAK
37.825529813999999,0,0x7F,0xFF,Read,NAK
37.825595233999998,0,0x7F,0xFF,Read,NAK
37.825696774000001,0,0x7F,0xFF,Read,NAK
37.825863560000002,0,0x7F,0xFF,Read,NAK
47.506883698000003,0,0x36,0x09,Write,ACK
47.507194534000000,0,0x36,0x48,Read,ACK
47.507223983999999,0,0x36,0xDA,Read,NAK
47.507522821999999,0,0x36,0x19,Write,ACK
47.507735734000001,0,0x36,0x8C,Read,ACK
47.507765202000002,0,0x36,0xD7,Read,NAK
47.508455890000000,0,0x36,0xFB,Write,ACK
47.508667144000000,0,0x36,0x71,Read,ACK
47.508696620000002,0,0x36,0xD6,Read,NAK
47.509432306000001,0,0x36,0x00,Write,ACK
47.509639686000000,0,0x36,0x80,Read,ACK
47.509665845999997,0,0x36,0x00,Read,ACK
47.510403705999998,0,0x36,0x01,Write,ACK
47.510570031999997,0,0x36,0xA0,Read,ACK
47.510599526000000,0,0x36,0xFF,Read,NAK
47.511330731999998,0,0x1B,0x01,Write,ACK
47.511542276000000,0,0x36,0x80,Read,ACK
47.511571770000003,0,0x36,0x7F,Read,NAK
47.512294324000003,0,0x3B,0x01,Write,NAK
47.512505158000003,0,0x36,0x01,Read,ACK
47.512534627999997,0,0x36,0xFF,Read,NAK
47.513259163999997,0,0x36,0x04,Write,ACK
47.513467814000002,0,0x36,0x00,Read,ACK
47.513497291999997,0,0x36,0x19,Read,NAK
47.514312242000003,0,0x36,0x05,Write,ACK
47.514507436000002,0,0x36,0xDF,Read,ACK
47.514536913999997,0,0x36,0x10,Read,NAK
47.515119491999997,0,0x36,0x06,Write,ACK
47.515327296000002,0,0x36,0x24,Read,ACK
47.515356769999997,0,0x36,0x60,Read,NAK
47.516080049999999,0,0x36,0x07,Write,ACK
47.516285556000000,0,0x36,0xE7,Read,ACK
47.516315050000003,0,0x36,0x63,Read,NAK
47.517039476000001,0,0x36,0x08,Write,ACK
47.517246147999998,0,0x36,0x19,Read,ACK
47.517275617999999,0,0x36,0x1E,Read,NAK
47.518003493999998,0,0x36,0x09,Write,ACK
47.518171076000002,0,0x36,0x48,Read,ACK
47.518200552000003,0,0x36,0xDA,Read,NAK
47.518928850000002,0,0x36,0x0A,Write,ACK
47.519135198000001,0,0x36,0xA6,Read,ACK
47.519164676000003,0,0x36,0x00,Read,NAK
47.519888276000003,0,0x36,0x0B,Write,ACK
47.520095853999997,0,0x36,0x81,Read,ACK
47.520125350000001,0,0x36,0x00,Read,NAK
47.520847605999997,0,0x36,0x0C,Write,ACK
47.521054567999997,0,0x36,0x07,Read,ACK
47.521084043999998,0,0x36,0x00,Read,NAK
47.521810678000001,0,0x36,0x0D,Write,ACK
47.522025859999999,0,0x36,0x7B,Read,ACK
47.522055346000002,0,0x36,0x5F,Read,NAK
47.522233872000001,0,0x36,0x0E,Write,ACK
47.522423246000002,0,0x36,0x34,Read,ACK
47.522452719999997,0,0x36,0x60,Read,NAK
47.523028424000003,0,0x36,0x0F,Write,ACK
47.523236300000001,0,0x36,0xE1,Read,ACK
47.523265797999997,0,0x36,0x10,Read,NAK
47.530546536000003,0,0x36,0x10,Write,ACK
47.530756193999999,0,0x36,0x86,Read,ACK
47.530785692000002,0,0x36,0x11,Read,NAK
47.531028792000001,0,0x36,0x11,Write,ACK
47.531230540000003,0,0x36,0xFF,Read,ACK
47.531260011999997,0,0x36,0xFF,Read,NAK
47.531454707999998,0,0x36,0x12,Write,ACK
47.531609076000002,0,0x36,0x00,Read,ACK
47.531638551999997,0,0x36,0x28,Read,NAK
47.531826764000002,0,0x36,0x13,Write,ACK
47.531980523999998,0,0x36,0x00,Read,ACK
47.532006670000001,0,0x36,0x2D,Read,NAK
47.532195928000000,0,0x36,0x14,Write,ACK
47.532349124000000,0,0x36,0xC4,Read,ACK
47.532378624000003,0,0x36,0x07,Read,NAK
47.532563506000002,0,0x36,0x15,Write,ACK
47.532717359999999,0,0x36,0x48,Read,ACK
47.532746826000000,0,0x36,0x01,Read,NAK
47.532933583999998,0,0x36,0x16,Write,ACK
47.533086714000000,0,0x36,0x36,Read,ACK
47.533116153999998,0,0x36,0x0F,Read,ACK
47.533302102000000,0,0x36,0x17,Write,ACK
47.533454804000002,0,0x36,0x00,Read,ACK
47.533484289999997,0,0x36,0x00,Read,NAK
47.533668761999998,0,0x36,0x18,Write,ACK
47.533821646000000,0,0x36,0x8F,Read,ACK
47.533851136000003,0,0x36,0x11,Read,NAK
47.534042487999997,0,0x36,0x19,Write,ACK
47.534195169999997,0,0x36,0x8C,Read,ACK
47.534224649999999,0,0x36,0xD7,Read,NAK
47.534414337999998,0,0x36,0x1A,Write,ACK
47.534568196000002,0,0x36,0x16,Read,ACK
47.534597658000003,0,0x36,0x1F,Read,NAK
47.534782860000000,0,0x36,0x1B,Write,ACK
47.534935028000000,0,0x36,0xBC,Read,ACK
47.534964496000001,0,0x36,0xDA,Read,NAK
47.535149396000001,0,0x36,0x1C,Write,ACK
47.535301574000002,0,0x36,0xED,Read,ACK
47.535331055999997,0,0x36,0x01,Read,NAK
47.535517802000001,0,0x36,0x1D,Write,ACK
47.535670418000002,0,0x36,0x14,Read,ACK
47.535699895999997,0,0x36,0x03,Read,NAK
47.535886124000001,0,0x36,0x1E,Write,ACK
47.536038079999997,0,0x36,0xC0,Read,ACK
47.536067578000001,0,0x36,0x08,Read,NAK
47.536253096000003,0,0x36,0x1F,Write,ACK
47.536406092000000,0,0x36,0xDB,Read,ACK
47.536435582000003,0,0x36,0x10,Read,NAK
47.542414932000000,0,0x36,0x20,Write,ACK
47.542582006000004,0,0x36,0x00,Read,ACK
47.542611483999998,0,0x36,0x00,Read,NAK
47.542802295999998,0,0x36,0x21,Write,ACK
47.542955937999999,0,0x36,0x00,Read,ACK
47.542985432000002,0,0x36,0x62,Read,NAK
47.543171340000001,0,0x36,0x22,Write,ACK
47.543325297999999,0,0x36,0x00,Read,ACK
47.543354762000000,0,0x36,0x16,Read,NAK
47.543541525999998,0,0x36,0x23,Write,ACK
47.543695157999998,0,0x36,0x8D,Read,ACK
47.543724642000001,0,0x36,0x11,Read,NAK
47.543909626000001,0,0x36,0x24,Write,ACK
47.544062447999998,0,0x36,0x03,Read,ACK
47.544091911999999,0,0x36,0x14,Read,NAK
47.544278149999997,0,0x36,0x25,Write,ACK
47.544432116000003,0,0x36,0x05,Read,ACK
47.544461579999997,0,0x36,0x1E,Read,NAK
47.544648234000000,0,0x36,0x26,Write,ACK
47.544801270000001,0,0x36,0x36,Read,ACK
47.544830742000002,0,0x36,0x1E,Read,NAK
47.545016548000000,0,0x36,0x27,Write,ACK
47.545169985999998,0,0x36,0x68,Read,ACK
47.545199459999999,0,0x36,0x7F,Read,NAK
47.545384126000002,0,0x36,0x28,Write,ACK
47.545537574000001,0,0x36,0x06,Read,ACK
47.545567036000001,0,0x36,0x26,Read,NAK
47.545752546000003,0,0x36,0x29,Write,ACK
47.546036483999998,0,0x36,0xA2,Read,ACK
47.546062644000003,0,0x36,0x67,Read,ACK
47.546263568000001,0,0x36,0x2A,Write,ACK
47.546416999999998,0,0x36,0x3C,Read,ACK
47.546446472000000,0,0x36,0x04,Read,NAK
47.546632500000001,0,0x36,0x2B,Write,ACK
47.546785313999997,0,0x36,0x70,Read,ACK
47.546814791999999,0,0x36,0x38,Read,NAK
47.547000695999998,0,0x36,0x2C,Write,ACK
47.547153299999998,0,0x36,0xE1,Read,ACK
47.547182769999999,0,0x36,0xE3,Read,NAK
47.547369856000003,0,0x36,0x2D,Write,ACK
47.547522974000003,0,0x36,0x0E,Read,ACK
47.547552459999999,0,0x36,0x29,Read,NAK
47.547738060000000,0,0x36,0x2E,Write,ACK
47.547890873999997,0,0x36,0x00,Read,ACK
47.547920345999998,0,0x36,0x04,Read,NAK
47.548106795999999,0,0x36,0x2F,Write,ACK
47.548259813999998,0,0x36,0x01,Read,ACK
47.548289273999998,0,0x36,0x00,Read,NAK
47.554417682000000,0,0x36,0x30,Write,ACK
47.554576218000001,0,0x36,0x30,Read,ACK
47.554605702000003,0,0x36,0x11,Read,NAK
47.554858799999998,0,0x36,0x31,Write,ACK
47.555015666000003,0,0x36,0xDA,Read,ACK
47.555045149999998,0,0x36,0x08,Read,NAK
47.555233469999997,0,0x36,0x32,Write,ACK
47.555386695999999,0,0x36,0x00,Read,ACK
47.555416176000001,0,0x36,0x0D,Read,NAK
47.555601897999999,0,0x36,0x33,Write,ACK
47.555753742000000,0,0x36,0xFF,Read,ACK
47.555783226000003,0,0x36,0xFF,Read,NAK
47.555968942000000,0,0x36,0x34,Write,ACK
47.556121447999999,0,0x36,0x0A,Read,ACK
47.556150928000001,0,0x36,0x1E,Read,NAK
47.556336745999999,0,0x36,0x35,Write,ACK
47.556488383999998,0,0x36,0x8C,Read,ACK
47.556517876000001,0,0x36,0x11,Read,NAK
47.556703089999999,0,0x36,0x36,Write,ACK
47.556856629999999,0,0x36,0x0B,Read,ACK
47.556886098000000,0,0x36,0x0E,Read,NAK
47.557072636000001,0,0x36,0x37,Write,ACK
47.557225441999996,0,0x36,0xE0,Read,ACK
47.557254927999999,0,0x36,0x05,Read,NAK
47.557440032000002,0,0x36,0x38,Write,ACK
47.557592620000001,0,0x36,0x27,Read,ACK
47.557622100000003,0,0x36,0x00,Read,NAK
47.557807292000000,0,0x36,0x39,Write,ACK
47.557965412000001,0,0x36,0x20,Read,ACK
47.557994882000003,0,0x36,0x15,Read,NAK
47.558184144000002,0,0x36,0x3A,Write,ACK
47.558336537999999,0,0x36,0x54,Read,ACK
47.558366010000000,0,0x36,0x7D,Read,NAK
47.558551928000000,0,0x36,0x3B,Write,ACK
47.558704616000000,0,0x36,0x81,Read,ACK
47.558734115999997,0,0x36,0x00,Read,NAK
47.558919312000000,0,0x36,0x3C,Write,ACK
47.559071574000001,0,0x36,0x80,Read,ACK
47.559101071999997,0,0x36,0x16,Read,NAK
47.559286475999997,0,0x36,0x3D,Write,ACK
47.559439083999997,0,0x36,0x00,Read,ACK
47.559468561999999,0,0x36,0x10,Read,NAK
47.559653533999999,0,0x36,0x3E,Write,ACK
47.559806754000000,0,0x36,0xE2,Read,ACK
47.559836255999997,0,0x36,0x00,Read,NAK
47.560021640000002,0,0x36,0x3F,Write,ACK
47.560174967999998,0,0x36,0x00,Read,ACK
47.560204423999998,0,0x36,0xE0,Read,NAK
47.566498252000002,0,0x36,0x40,Write,ACK
47.566655116000000,0,0x36,0xFC,Read,ACK
47.566684598000002,0,0x36,0x07,Read,NAK
47.566874790000000,0,0x36,0x41,Write,ACK
47.567028120000003,0,0x36,0x00,Read,ACK
47.567057607999999,0,0x36,0x00,Read,NAK
47.567242694000001,0,0x36,0x42,Write,ACK
47.567395503999997,0,0x36,0x00,Read,ACK
47.567424979999998,0,0x36,0x0B,Read,NAK
47.567610162000001,0,0x36,0x43,Write,ACK
47.567763198000002,0,0x36,0x30,Read,ACK
47.567792658000002,0,0x36,0x01,Read,NAK
47.567978052000001,0,0x36,0x44,Write,ACK
47.568130009999997,0,0x36,0x60,Read,ACK
47.568159512000001,0,0x36,0xD6,Read,NAK
47.568345127999997,0,0x36,0x45,Write,ACK
47.568497313999998,0,0x36,0x63,Read,ACK
47.568526800000001,0,0x36,0x04,Read,NAK
47.568712505999997,0,0x36,0x46,Write,ACK
47.568865107999997,0,0x36,0x00,Read,ACK
47.568894579999998,0,0x36,0x32,Read,NAK
47.569079981999998,0,0x36,0x47,Write,ACK
47.569232786000001,0,0x36,0x4B,Read,ACK
47.569262244000001,0,0x36,0xFF,Read,NAK
47.569448370000003,0,0x36,0x48,Write,ACK
47.569600801999997,0,0x36,0x30,Read,ACK
47.569630281999999,0,0x36,0x60,Read,NAK
47.569815028000001,0,0x36,0x49,Write,ACK
47.569973062000003,0,0x36,0x40,Read,ACK
47.570002531999997,0,0x36,0x22,Read,NAK
47.570174293999997,0,0x36,0x4A,Write,ACK
47.570328883999998,0,0x36,0x00,Read,ACK
47.570358352000000,0,0x36,0x11,Read,NAK
47.570583540000001,0,0x36,0x4B,Write,ACK
47.570736762000003,0,0x36,0x03,Read,ACK
47.570766255999999,0,0x36,0x02,Read,NAK
47.570951033999997,0,0x36,0x4C,Write,ACK
47.571102963999998,0,0x36,0xFF,Read,ACK
47.571132468000002,0,0x36,0xFF,Read,NAK
47.571317571999998,0,0x36,0x4D,Write,ACK
47.571470249999997,0,0x36,0xFF,Read,ACK
47.571499742000000,0,0x36,0xFF,Read,NAK
47.571685043999999,0,0x36,0x4E,Write,ACK
47.571836681999997,0,0x36,0x9E,Read,ACK
47.571866161999999,0,0x36,0xB2,Read,NAK
47.572051389999999,0,0x36,0x4F,Write,ACK
47.572203651999999,0,0x36,0x8D,Read,ACK
47.572233140000002,0,0x36,0x11,Read,NAK
47.578458394000002,0,0x36,0xB0,Write,ACK
47.578614450000003,0,0x36,0x00,Read,ACK
47.578643927999998,0,0x36,0x00,Read,NAK
47.578832444000000,0,0x36,0xB1,Write,ACK
47.578983293999997,0,0x36,0x45,Read,ACK
47.579012767999998,0,0x36,0x6D,Read,NAK
47.579195442000000,0,0x36,0xB2,Write,ACK
47.579346084000001,0,0x36,0x01,Read,ACK
47.579375548000002,0,0x36,0x00,Read,NAK
47.579556877999998,0,0x36,0xB3,Write,ACK
47.579705042000001,0,0x36,0x02,Read,ACK
47.579734391999999,0,0x36,0x17,Read,ACK
47.579920078000001,0,0x36,0xB4,Write,ACK
47.580069979999998,0,0x36,0x80,Read,ACK
47.580099470000000,0,0x36,0x7F,Read,NAK
47.580281313999997,0,0x36,0xB5,Write,ACK
47.580431535999999,0,0x36,0x05,Read,ACK
47.580460998000000,0,0x36,0x00,Read,NAK
47.580642449999999,0,0x36,0xB6,Write,ACK
47.580792150000001,0,0x36,0x56,Read,ACK
47.580821618000002,0,0x36,0x13,Read,NAK
47.581003564000000,0,0x36,0xB7,Write,ACK
47.581154306000002,0,0x36,0x00,Read,ACK
47.581183787999997,0,0x36,0x06,Read,NAK
47.581365734000002,0,0x36,0xB8,Write,ACK
47.581516059999998,0,0x36,0x00,Read,ACK
47.581545540000000,0,0x36,0x00,Read,NAK
47.581726840000002,0,0x36,0xB9,Write,ACK
47.581875940000003,0,0x36,0x6B,Read,ACK
47.581905413999998,0,0x36,0x00,Read,NAK
47.582132252000001,0,0x36,0xBA,Write,ACK
47.582300703999998,0,0x36,0x0C,Read,ACK
47.582330175999999,0,0x36,0x09,Read,NAK
47.582524108000001,0,0x36,0xBB,Write,ACK
47.582677554000000,0,0x36,0x55,Read,ACK
47.582707030000002,0,0x36,0x00,Read,NAK
47.582893460000001,0,0x36,0xBC,Write,ACK
47.583046390000000,0,0x36,0x17,Read,ACK
47.583075852000000,0,0x36,0x05,Read,NAK
47.583261448000002,0,0x36,0xBD,Write,ACK
47.583414920000003,0,0x36,0x04,Read,ACK
47.583444382000003,0,0x36,0x02,Read,NAK
47.583628218000001,0,0x36,0xBE,Write,ACK
47.583780396000002,0,0x36,0x00,Read,ACK
47.583809883999997,0,0x36,0x00,Read,NAK
47.583991122000000,0,0x1B,0x5F,Write,NAK
47.584145911999997,0,0x36,0x00,Read,ACK
47.584175381999998,0,0x36,0x00,Read,NAK
47.590411263999997,0,0x36,0xD0,Write,ACK
47.590563260000003,0,0x36,0x4E,Read,ACK
47.590592718000003,0,0x36,0x04,Read,NAK
47.590775096000002,0,0x36,0xD1,Write,ACK
47.590921676000001,0,0x36,0x00,Read,ACK
47.590951142000002,0,0x36,0x00,Read,NAK
47.591129557999999,0,0x36,0xD2,Write,ACK
47.591276440000001,0,0x36,0x00,Read,ACK
47.591305914000003,0,0x36,0x00,Read,NAK
47.591484532000003,0,0x36,0xD3,Write,ACK
47.591631004000000,0,0x36,0x00,Read,ACK
47.591660468000001,0,0x36,0x00,Read,NAK
47.591838881999998,0,0x36,0xD4,Write,ACK
47.591985262000001,0,0x36,0x00,Read,ACK
47.592014743999997,0,0x36,0x00,Read,NAK
47.592193240000000,0,0x36,0xD5,Write,ACK
47.592339727999999,0,0x36,0x00,Read,ACK
47.592369189999999,0,0x36,0x00,Read,NAK
47.592548548000003,0,0x36,0xD6,Write,ACK
47.592694586000000,0,0x36,0x00,Read,ACK
47.592724068000003,0,0x36,0x00,Read,NAK
47.592902268000003,0,0x36,0xD7,Write,ACK
47.593048644000000,0,0x36,0x00,Read,ACK
47.593078114000001,0,0x36,0x00,Read,NAK
47.593256531999998,0,0x36,0xD8,Write,ACK
47.593402884000000,0,0x36,0x00,Read,ACK
47.593432366000002,0,0x36,0x00,Read,NAK
47.593610357999999,0,0x36,0xD9,Write,ACK
47.593757244000003,0,0x36,0x00,Read,ACK
47.593786712000004,0,0x36,0x00,Read,NAK
47.594162822000001,0,0x36,0xDA,Write,ACK
47.594320148000001,0,0x36,0x00,Read,ACK
47.594349608000002,0,0x36,0x00,Read,NAK
47.594535714000003,0,0x36,0xDB,Write,ACK
47.594688443999999,0,0x36,0x10,Read,ACK
47.594717910000000,0,0x36,0x00,Read,NAK
47.594903094000003,0,0x36,0xDC,Write,ACK
47.595054458000000,0,0x36,0x07,Read,ACK
47.595083948000003,0,0x36,0x00,Read,NAK
47.595267651999997,0,0x36,0xDD,Write,ACK
47.595420152000003,0,0x36,0xFF,Read,ACK
47.595449635999998,0,0x36,0xFF,Read,NAK
47.595631097999998,0,0x36,0x6F,Write,ACK
47.595786400000001,0,0x36,0x2D,Read,ACK
47.595815858000002,0,0x36,0x60,Read,NAK
47.596000109999999,0,0x36,0xDF,Write,ACK
47.596121074000003,,0x1B,,Write,NAK
47.596147731999999,0,0x1B,0x6D,Write,ACK
47.596177120000000,0,0x1B,0x08,Write,ACK
47.602416013999999,0,0x36,0xE0,Write,ACK
47.602584329999999,0,0x36,0xC3,Read,NAK
47.602610499999997,0,0x36,0x02,Read,NAK
47.602968156000003,0,0x36,0xE1,Write,ACK
47.603124942000001,0,0x36,0x11,Read,ACK
47.603154408000002,0,0x36,0x0D,Read,NAK
47.603342091999998,0,0x36,0xE2,Write,ACK
47.603494611999999,0,0x36,0x22,Read,ACK
47.603524088000000,0,0x36,0x1A,Read,NAK
47.603708124000001,0,0x36,0xE3,Write,ACK
47.603860509999997,0,0x36,0x05,Read,ACK
47.603889998000000,0,0x36,0x00,Read,NAK
47.604074445999998,0,0x36,0xE4,Write,ACK
47.604226664000002,0,0x36,0x62,Read,ACK
47.604256116000002,0,0x36,0xFC,Read,NAK
47.604440881999999,0,0x36,0xE5,Write,ACK
47.604592466000000,0,0x36,0x00,Read,ACK
47.604621940000001,0,0x36,0x00,Read,NAK
47.604806494000002,0,0x36,0xE6,Write,ACK
47.604958580000002,0,0x36,0x00,Read,ACK
47.604988077999998,0,0x36,0x00,Read,NAK
47.605173338000000,0,0x36,0xE7,Write,ACK
47.605325229999998,0,0x36,0x02,Read,ACK
47.605354712000000,0,0x36,0x00,Read,NAK
47.605538006000003,0,0x36,0xE8,Write,ACK
47.605689360000000,0,0x36,0xBE,Read,ACK
47.605718852000003,0,0x36,0x4A,Read,NAK
47.605905495999998,0,0x36,0xE9,Write,ACK
47.606075934000003,0,0x36,0x00,Read,ACK
47.606105403999997,0,0x36,0x00,Read,NAK
47.606292134000000,0,0x36,0xEA,Write,ACK
47.606444639999999,0,0x36,0x90,Read,ACK
47.606474136000003,0,0x36,0x46,Read,NAK
47.606658781999997,0,0x36,0xEB,Write,ACK
47.606810260000003,0,0x36,0x00,Read,ACK
47.606839723999997,0,0x36,0x00,Read,NAK
47.607024703999997,0,0x36,0xEC,Write,ACK
47.607176271999997,0,0x36,0x00,Read,ACK
47.607205747999998,0,0x36,0x40,Read,NAK
47.607390307999999,0,0x36,0xED,Write,ACK
47.607541468000001,0,0x36,0x00,Read,ACK
47.607570944000003,0,0x36,0x00,Read,NAK
47.607755593999997,0,0x36,0xEE,Write,ACK
47.607907382000000,0,0x36,0x00,Read,ACK
47.607936850000002,0,0x36,0x7D,Read,NAK
47.608122559999998,0,0x36,0xEF,Write,ACK
47.608275079999999,0,0x36,0x20,Read,ACK
47.608304541999999,0,0x36,0x08,Read,NAK
47.614760300000000,0,0x36,0xF0,Write,ACK
47.614934249999997,0,0x36,0xFF,Read,ACK
47.614963738000000,0,0x36,0xFF,Read,NAK
47.615154038000000,0,0x36,0xF1,Write,ACK
47.615306533999998,0,0x36,0xFF,Read,ACK
47.615336014000000,0,0x36,0xFF,Read,NAK
47.615522146000004,0,0x36,0xF2,Write,ACK
47.615674644000002,0,0x36,0xFF,Read,ACK
47.615704117999996,0,0x36,0xFF,Read,NAK
47.615888265999999,0,0x36,0xF3,Write,ACK
47.616040861999998,0,0x36,0xFF,Read,ACK
47.616070346000001,0,0x36,0xFF,Read,NAK
47.616255012000003,0,0x36,0xF4,Write,ACK
47.616406155999996,0,0x36,0xAD,Read,ACK
47.616435654000000,0,0x36,0x20,Read,NAK
47.616619370000002,0,0x36,0xF5,Write,ACK
47.616770848000002,0,0x36,0x00,Read,ACK
47.616800308000002,0,0x36,0x00,Read,NAK
47.616985499999998,0,0x36,0xF6,Write,ACK
47.617137276000001,0,0x36,0x00,Read,ACK
47.617166758000003,0,0x36,0x00,Read,NAK
47.617352140000001,0,0x36,0xF7,Write,ACK
47.617503720000002,0,0x36,0x14,Read,ACK
47.617533168000001,0,0x36,0xFA,Read,NAK
47.617717429999999,0,0x36,0xF8,Write,ACK
47.617868377999997,0,0x36,0xB4,Read,ACK
47.617897866000000,0,0x36,0x3F,Read,NAK
47.618090530000003,0,0x36,0xF9,Write,ACK
47.618244189999999,0,0x36,0x7A,Read,ACK
47.618273672000001,0,0x36,0x5D,Read,NAK
47.618459891999997,0,0x36,0xFA,Write,ACK
47.618611678000001,0,0x36,0x3A,Read,ACK
47.618641150000002,0,0x36,0x00,Read,NAK
47.618825800000003,0,0x36,0xFB,Write,ACK
47.618977802000003,0,0x36,0x71,Read,ACK
47.619007267999997,0,0x36,0xD6,Read,NAK
47.619192036000001,0,0x36,0xFC,Write,ACK
47.619343722000004,0,0x36,0x20,Read,ACK
47.619373201999998,0,0x36,0x00,Read,NAK
47.619558066000003,0,0x36,0xFE,Write,NAK
47.619709626000002,0,0x36,0x10,Read,ACK
47.619739096000004,0,0x36,0x29,Read,NAK
47.619922817999999,0,0x36,0xFE,Write,ACK
47.620075026000002,0,0x36,0x54,Read,ACK
47.620101204000001,0,0x36,0x6D,Read,ACK
47.620289176000000,0,0x36,0xFF,Write,ACK
47.620441253999999,0,0x36,0x30,Read,ACK
47.620470728000001,0,0x36,0x60,Read,NAK
47.626576317999998,0,0x36,0x38,Write,ACK
47.626783711999998,0,0x36,0x27,Read,ACK
47.626813188000000,0,0x36,0x00,Read,NAK
47.627007540000001,0,0x36,0x39,Write,ACK
47.627158487999999,0,0x36,0x20,Read,ACK
47.627187956000000,0,0x36,0x15,Read,NAK
47.627373368000001,0,0x36,0x18,Write,ACK
47.627523343999997,0,0x36,0x8F,Read,ACK
47.627552836000000,0,0x36,0x11,Read,NAK
47.627734281999999,0,0x36,0x23,Write,ACK
47.627883429999997,0,0x36,0x8C,Read,NAK
47.627909604000003,0,0x36,0x08,Read,NAK
47.628094146000002,0,0x36,0x35,Write,ACK
47.628243511999997,0,0x36,0x8C,Read,ACK
47.628273002000000,0,0x36,0x11,Read,NAK
47.628457984000001,0,0x36,0x43,Write,ACK
47.628607670000001,0,0x36,0x30,Read,ACK
47.628637128000001,0,0x36,0x01,Read,NAK
47.628823173999997,0,0x36,0x4B,Write,ACK
47.628972652000002,0,0x36,0x03,Read,ACK
47.629002126000003,0,0x36,0x02,Read,NAK
47.629188974000002,0,0x36,0xB1,Write,ACK
47.629338674000003,0,0x36,0x4E,Read,ACK
47.629368145999997,0,0x36,0x6D,Read,NAK
47.629553854000001,0,0x36,0xD0,Write,ACK
47.629703444000000,0,0x36,0x00,Read,ACK
47.629732918000002,0,0x36,0x05,Read,NAK
47.629946959999998,0,0x36,0xB3,Write,ACK
47.630098621999998,0,0x36,0xDB,Read,ACK
47.630128106000001,0,0x36,0x2D,Read,NAK
47.630315379999999,0,0x36,0x4D,Write,ACK
47.630465258000001,0,0x36,0xFF,Read,ACK
47.630494740000003,0,0x36,0xFF,Read,NAK
47.630743166000002,0,0x36,0x0A,Write,ACK
47.630895971999998,0,0x36,0xC1,Read,ACK
47.630925454000000,0,0x36,0x00,Read,NAK
47.631134193999998,0,0x36,0x0B,Write,ACK
47.631285321999997,0,0x36,0x81,Read,ACK
47.631314814000000,0,0x36,0x00,Read,NAK
47.631500322000001,0,0x36,0x09,Write,ACK
47.631649703999997,0,0x36,0x54,Read,ACK
47.631679151999997,0,0x36,0xDA,Read,NAK
47.631891441999997,0,0x36,0x4B,Write,ACK
47.632042902000002,0,0x36,0x03,Read,ACK
47.632072376000004,0,0x36,0x02,Read,NAK
47.632262253999997,0,0x36,0x43,Write,ACK
47.632412043999999,0,0x36,0x30,Read,ACK
47.632441522000001,0,0x36,0x01,Read,NAK
47.684624409999998,0,0x36,0x08,Write,ACK
47.684654168000002,0,0x36,0xCD,Write,ACK
47.684683982000003,0,0x36,0x1D,Write,ACK
47.684922296000003,0,0x36,0x06,Write,ACK
47.685153548000002,0,0x36,0x24,Read,ACK
47.685183027999997,0,0x36,0x60,Read,NAK
47.686113380000002,0,0x36,0x09,Write,ACK
47.686337868000003,0,0x36,0x54,Read,ACK
47.686367300000001,0,0x36,0xDA,Read,NAK
47.686563659999997,0,0x36,0x0B,Write,ACK
47.686716464000000,0,0x36,0x82,Read,ACK
47.686745954000003,0,0x36,0x00,Read,NAK
47.686934792000002,0,0x36,0x09,Write,ACK
47.687088332000002,0,0x36,0x54,Read,ACK
47.687117794000002,0,0x36,0xDA,Read,NAK
47.687372478000000,0,0x36,0x06,Write,ACK
47.687529245999997,0,0x36,0x24,Read,ACK
47.687558723999999,0,0x36,0x60,Read,NAK
47.687768177999999,0,0x36,0x05,Write,ACK
47.687922225999998,0,0x36,0xDF,Read,ACK
47.687951724000001,0,0x36,0x10,Read,NAK
47.688140238000003,0,0x36,0x4D,Write,ACK
47.688293268000002,0,0x36,0xFF,Read,ACK
47.688322728000003,0,0x36,0xFF,Read,NAK
47.688756859999998,0,0x69,0xBD,Write,ACK
47.688913739999997,0,0x69,0xEC,Read,NAK
47.689100281999998,0,0x69,0xBD,Write,ACK
47.689130075999998,0,0x69,0xED,Write,ACK
47.689315057999998,0,0x69,0xB4,Write,ACK
47.689467467999997,0,0x69,0x33,Read,NAK
47.689683479999999,0,0x69,0xB3,Write,ACK
47.689837330000003,0,0x69,0xE0,Read,NAK
47.690233444000000,0,0x69,0xB4,Write,ACK
47.690457006000003,0,0x69,0x33,Read,NAK
47.690668522000003,0,0x69,0xB3,Write,ACK
47.690867376000000,0,0x69,0xE0,Read,NAK
47.691091942000000,0,0x69,0xB4,Write,ACK
47.691255075999997,0,0x69,0x33,Read,NAK
47.691442334000001,0,0x69,0xB7,Write,ACK
47.691594530000003,0,0x69,0x15,Read,NAK
47.691789825999997,0,0x36,0xD0,Write,ACK
47.691942435999998,0,0x36,0x00,Read,ACK
47.691971912000000,0,0x36,0x05,Read,NAK
47.692166356000001,0,0x36,0xB3,Write,ACK
47.692317598000002,0,0x36,0xDB,Read,ACK
47.692347106000000,0,0x36,0x2D,Read,NAK
47.692724775999999,0,0x36,0x06,Write,ACK
47.692885914000001,0,0x36,0x24,Read,ACK
47.692915405999997,0,0x36,0x60,Read,NAK
47.693392226000000,0,0x69,0xB1,Write,ACK
47.693549330000003,0,0x69,0x7A,Read,NAK
47.693739811999997,0,0x69,0xB2,Write,ACK
47.693892310000003,0,0x69,0xDF,Read,NAK
47.694154158000003,0,0x69,0xB3,Write,ACK
47.694302596000000,0,0x69,0xE0,Read,NAK
47.694595583999998,0,0x69,0xB4,Write,ACK
47.694780811999998,0,0x69,0x33,Read,NAK
47.694962345999997,0,0x69,0xB5,Write,ACK
47.695104344000001,0,0x69,0x00,Read,NAK
47.695278569999999,0,0x69,0xB6,Write,ACK
47.695420134000003,0,0x69,0xFF,Read,NAK
47.695594372000002,0,0x69,0xB7,Write,ACK
47.695735954000000,0,0x69,0x15,Read,NAK
47.695910519999998,0,0x69,0xB8,Write,ACK
47.696052512000001,0,0x69,0x38,Read,NAK
47.696226430000003,0,0x69,0xB9,Write,ACK
47.696367610000003,0,0x69,0x4B,Read,NAK
47.696541734000000,0,0x69,0xBD,Write,ACK
47.696683082000000,0,0x69,0x8F,Read,NAK
47.696857657999999,0,0x69,0xBB,Write,ACK
47.696999120000001,0,0x69,0x16,Read,NAK
47.697172836000000,0,0x69,0xBC,Write,ACK
47.697314106000000,0,0x69,0x60,Read,NAK
47.697489079999997,0,0x69,0xBD,Write,ACK
47.697630848000003,0,0x69,0xEC,Read,NAK
47.697806032000003,0,0x69,0xBE,Write,ACK
47.698033752000001,0,0x69,0x34,Read,NAK
47.698211868000001,0,0x69,0xBF,Write,ACK
47.698401236000002,0,0x69,0x00,Read,NAK
47.698580376000002,0,0x69,0xC0,Write,ACK
47.698724108000000,0,0x69,0x92,Read,NAK
47.698899419999996,0,0x69,0xC1,Write,ACK
47.699041506000000,0,0x69,0x10,Read,NAK
47.699216065999998,0,0x69,0xC2,Write,ACK
47.699357536000001,0,0x69,0x00,Read,NAK
47.699532712000000,0,0x69,0xC3,Write,ACK
47.699674700000003,0,0x69,0x68,Read,NAK
47.699877688000001,0,0x69,0xB7,Write,ACK
47.700020930000001,0,0x69,0x15,Read,NAK
47.700193100000000,0,0x69,0xBC,Write,ACK
47.700335090000003,0,0x69,0x60,Read,NAK
47.700769842000000,0,0x36,0x0A,Write,ACK
47.700909650000000,0,0x36,0x60,Read,NAK
47.700939016000000,0,0x36,0x00,Read,ACK
47.701140965999997,0,0x36,0x0B,Write,ACK
47.701282517999999,0,0x36,0x82,Read,ACK
47.701312004000002,0,0x36,0x00,Read,NAK
47.701483453999998,0,0x36,0x09,Write,ACK
47.701625952000001,0,0x36,0x54,Read,ACK
47.701655404000000,0,0x36,0xDA,Read,NAK
47.701871762000003,0,0x36,0x43,Write,ACK
47.702070399999997,0,0x36,0x30,Read,ACK
47.702099879999999,0,0x36,0x01,Read,NAK
47.702282478000001,0,0x36,0x4B,Write,ACK
47.702472471999997,0,0x36,0x03,Read,ACK
47.702501941999998,0,0x36,0x02,Read,NAK
47.703942800000000,0,0x36,0x0B,Write,ACK
47.704081428000002,,0x36,,Write,NAK
47.704108106000000,0,0x36,0x41,Write,ACK
47.704137482000000,0,0x36,0x00,Write,ACK
47.704324747999998,0,0x36,0x09,Write,ACK
47.704467866000002,0,0x36,0x54,Read,ACK
47.704497324000002,0,0x36,0xDA,Read,NAK
47.999076477999999,,0x7F,,Read,NAK
47.999097429999999,0,0x7F,0xFF,Read,NAK
47.999104684000002,0,0x7F,0xFF,Read,NAK
47.999144569999999,0,0x7F,0xFF,Read,NAK
57.702880864000001,0,0x36,0x09,Write,ACK
57.703184909999997,0,0x36,0x60,Read,ACK
57.703214379999999,0,0x36,0xDA,Read,NAK
57.703507704000003,0,0x36,0x19,Write,ACK
57.703713628000003,0,0x36,0x1D,Read,ACK
57.703743092000003,0,0x36,0xD8,Read,NAK
57.704428477999997,0,0x36,0xFB,Write,ACK
57.704653692000001,0,0x36,0x7A,Read,ACK
57.704683353999997,0,0x36,0xD6,Read,NAK
57.705537378000002,0,0x36,0x00,Write,ACK
57.705741326000002,0,0x36,0x80,Read,ACK
57.705770807999997,0,0x36,0x00,Read,NAK
57.706389622000003,0,0x36,0x01,Write,ACK
57.706587108000001,0,0x36,0xA0,Read,ACK
57.706616578000002,0,0x36,0xFF,Read,NAK
57.707185613999997,0,0x36,0x02,Write,ACK
57.707390189999998,0,0x36,0x80,Read,ACK
57.707419676000001,0,0x36,0x7F,Read,NAK
57.708143700000001,0,0x36,0x03,Write,ACK
57.708349005999999,0,0x36,0x01,Read,ACK
57.708378459999999,0,0x36,0xFF,Read,NAK
57.709101654000001,0,0x36,0x04,Write,ACK
57.709308311999997,0,0x36,0x00,Read,ACK
57.709337791999999,0,0x36,0x19,Read,NAK
57.709521740000000,0,0x36,0x05,Write,ACK
57.709710463999997,0,0x36,0xDF,Read,ACK
57.709739954000000,0,0x36,0x10,Read,NAK
57.710159304000001,0,0x36,0x06,Write,ACK
57.710346383999997,0,0x36,0x24,Read,ACK
57.710375857999999,0,0x36,0x60,Read,NAK
57.711054464000000,0,0x36,0x07,Write,ACK
57.711247366000002,0,0x36,0xE7,Read,ACK
57.711276841999997,0,0x36,0x63,Read,NAK
57.711957112000000,0,0x36,0x08,Write,ACK
57.712150012000002,0,0x36,0xCD,Read,ACK
57.712179505999998,0,0x36,0x1D,Read,NAK
57.712859561999998,0,0x36,0x09,Write,ACK
57.713053402000000,0,0x36,0x60,Read,ACK
57.713082880000002,0,0x36,0xDA,Read,NAK
57.713767027999999,0,0x36,0x0A,Write,ACK
57.713925017999998,0,0x36,0xCB,Read,ACK
57.713954514000001,0,0x36,0x00,Read,NAK
57.714640815999999,0,0x36,0x0B,Write,ACK
57.714833622000000,0,0x36,0xA2,Read,ACK
57.714863110000003,0,0x36,0x00,Read,NAK
57.715545872000000,0,0x36,0x0C,Write,ACK
57.715740451999999,0,0x36,0x04,Read,ACK
57.715769934000001,0,0x36,0x00,Read,NAK
57.716451755999998,0,0x36,0x0D,Write,ACK
57.716644363999997,0,0x36,0x7E,Read,ACK
57.716673831999998,0,0x36,0x5F,Read,NAK
57.717625128000002,0,0x36,0x0E,Write,ACK
57.717839716000000,0,0x36,0x34,Read,ACK
57.717869186000001,0,0x36,0x60,Read,NAK
57.718596857999998,0,0x36,0x0F,Write,ACK
57.718805154000002,0,0x36,0xE1,Read,ACK
57.718834649999998,0,0x36,0x10,Read,NAK
57.726093294000002,0,0x36,0x10,Write,ACK
57.726319834000002,0,0x36,0x89,Read,ACK
57.726349325999998,0,0x36,0x11,Read,NAK
57.727074801999997,0,0x36,0x11,Write,ACK
57.727281136000002,0,0x36,0xFF,Read,ACK
57.727310608000003,0,0x36,0xFF,Read,NAK
57.728035063999997,0,0x36,0x12,Write,ACK
57.728239635999998,0,0x36,0x00,Read,ACK
57.728269116000000,0,0x36,0x28,Read,NAK
57.728995316000002,0,0x36,0x13,Write,ACK
57.729201054000001,0,0x36,0x00,Read,ACK
57.729230520000002,0,0x36,0x5B,Read,NAK
57.729959012000002,0,0x36,0x14,Write,ACK
57.730128086000001,0,0x36,0x04,Read,ACK
57.730157554000002,0,0x36,0x09,Read,NAK
57.730906982000000,0,0x36,0x15,Write,ACK
57.731113532000002,0,0x36,0x48,Read,ACK
57.731143021999998,0,0x36,0x01,Read,NAK
57.731864313999999,0,0x36,0x16,Write,ACK
57.732070141999998,0,0x36,0x2B,Read,ACK
57.732099642000001,0,0x36,0x1E,Read,NAK
57.732822182000000,0,0x36,0x17,Write,ACK
57.733027481999997,0,0x36,0x00,Read,ACK
57.733056963999999,0,0x36,0x00,Read,NAK
57.733785142000002,0,0x36,0x18,Write,ACK
57.734132615999997,0,0x36,0x8F,Read,ACK
57.734162112000000,0,0x36,0x11,Read,NAK
57.734897568000001,0,0x36,0x19,Write,ACK
57.735109027999997,0,0x36,0x1D,Read,ACK
57.735138503999998,0,0x36,0xD8,Read,NAK
57.735868881999998,0,0x36,0x1A,Write,ACK
57.736075866000000,0,0x36,0x16,Read,ACK
57.736105334000001,0,0x36,0x1F,Read,NAK
57.736827802000001,0,0x36,0x1B,Write,ACK
57.737034018000003,0,0x36,0xBC,Read,ACK
57.737063503999998,0,0x36,0xDA,Read,NAK
57.737875127999999,0,0x36,0x1C,Write,ACK
57.738045425999999,0,0x36,0xED,Read,ACK
57.738074916000002,0,0x36,0x01,Read,NAK
57.738801836000000,0,0x36,0x1D,Write,ACK
57.739007141999998,0,0x36,0x14,Read,ACK
57.739036614000000,0,0x36,0x03,Read,NAK
57.739760947999997,0,0x36,0x1E,Write,ACK
57.739967075999999,0,0x36,0xC0,Read,ACK
57.739996568000002,0,0x36,0x08,Read,NAK
57.740721731999997,0,0x36,0x1F,Write,ACK
57.740927763999998,0,0x36,0xDE,Read,ACK
57.740957244000001,0,0x36,0x10,Read,NAK
57.751231871999998,0,0x36,0x20,Write,ACK
57.751462697999997,0,0x36,0x00,Read,ACK
57.751492165999998,0,0x36,0x00,Read,NAK
57.752254209999997,0,0x36,0x21,Write,ACK
57.752460247999998,0,0x36,0x00,Read,ACK
57.752489720000000,0,0x36,0x62,Read,NAK
57.753213531999997,0,0x36,0x22,Write,ACK
57.753528197999998,0,0x36,0x00,Read,ACK
57.753557688000001,0,0x36,0x16,Read,NAK
57.753819536000002,0,0x36,0x23,Write,ACK
57.754008472000002,0,0x36,0x8D,Read,ACK
57.754037969999999,0,0x36,0x11,Read,NAK
57.754758025999998,0,0x36,0x24,Write,ACK
57.754963961999998,0,0x36,0x03,Read,ACK
57.754993431999999,0,0x36,0x14,Read,NAK
57.755717140000002,0,0x36,0x25,Write,ACK
57.755924210000003,0,0x36,0x05,Read,ACK
57.755953687999998,0,0x36,0x1E,Read,NAK
57.756677072000002,0,0x36,0x26,Write,ACK
57.756884560000003,0,0x36,0x2B,Read,ACK
57.756914049999999,0,0x36,0x1E,Read,NAK
57.757640772000002,0,0x36,0x27,Write,ACK
57.757798690000001,,0x36,,Read,NAK
57.757825353999998,0,0x36,0x3E,Read,ACK
57.757854739999999,0,0x36,0x3F,Read,NAK
57.758466138000003,0,0x36,0x28,Write,ACK
57.758666970000000,0,0x36,0x06,Read,ACK
57.758696456000003,0,0x36,0x26,Read,NAK
57.759356404000002,0,0x36,0x29,Write,ACK
57.759542218000000,0,0x36,0xA4,Read,ACK
57.759571690000001,0,0x36,0xCE,Read,NAK
57.759759518000003,0,0x36,0x2A,Write,ACK
57.759911383999999,0,0x36,0x3C,Read,ACK
57.759940858000000,0,0x36,0x04,Read,NAK
57.760123342000000,0,0x36,0x2B,Write,ACK
57.760273650000002,0,0x36,0x70,Read,ACK
57.760303124000004,0,0x36,0x38,Read,NAK
57.760485920000001,0,0x36,0x2C,Write,ACK
57.760635502000000,0,0x36,0xE1,Read,ACK
57.760664966000000,0,0x36,0xE3,Read,NAK
57.760846751999999,0,0x36,0x2D,Write,ACK
57.760996841999997,0,0x36,0x0E,Read,ACK
57.761026330000000,0,0x36,0x29,Read,NAK
57.761208285999999,0,0x36,0x2E,Write,ACK
57.761363170000003,0,0x36,0x00,Read,ACK
57.761392639999997,0,0x36,0x04,Read,NAK
57.761577111999998,0,0x36,0x2F,Write,ACK
57.761727643999997,0,0x36,0x01,Read,ACK
57.761757109999998,0,0x36,0x00,Read,NAK
57.769570090000002,0,0x36,0x30,Write,ACK
57.769729566000002,0,0x36,0xD2,Read,ACK
57.769759053999998,0,0x36,0x14,Read,NAK
57.769951020000001,0,0x36,0x31,Write,ACK
57.770104967999998,0,0x36,0x26,Read,ACK
57.770134454000001,0,0x36,0x09,Read,NAK
57.770321189999997,0,0x36,0x32,Write,ACK
57.770473903999999,0,0x36,0x00,Read,ACK
57.770503390000002,0,0x36,0x0D,Read,NAK
57.770689093999998,0,0x36,0x33,Write,ACK
57.770841076000004,0,0x36,0xFF,Read,ACK
57.770870547999998,0,0x36,0xFF,Read,NAK
57.771056377999997,0,0x36,0x34,Write,ACK
57.771208641999998,0,0x36,0xF6,Read,ACK
57.771238124000000,0,0x36,0x1D,Read,NAK
57.771423536000000,0,0x36,0x35,Write,ACK
57.771576117999999,0,0x36,0x8C,Read,ACK
57.771605616000002,0,0x36,0x11,Read,NAK
57.771791225999998,0,0x36,0x36,Write,ACK
57.771943733999997,0,0x36,0x0B,Read,ACK
57.771973215999999,0,0x36,0x0E,Read,NAK
57.772157974000002,0,0x36,0x37,Write,ACK
57.772311924000000,0,0x36,0xE0,Read,ACK
57.772341404000002,0,0x36,0x05,Read,NAK
57.772527318000002,0,0x36,0x38,Write,ACK
57.772679926000002,0,0x36,0x27,Read,ACK
57.772709399999997,0,0x36,0x00,Read,NAK
57.772894170000001,0,0x36,0x39,Write,ACK
57.773045117999999,0,0x36,0x20,Read,ACK
57.773074596000001,0,0x36,0x15,Read,NAK
57.773259988000000,0,0x36,0x3A,Write,ACK
57.773418122000002,0,0x36,0x54,Read,ACK
57.773447597999997,0,0x36,0x7D,Read,NAK
57.773660595999999,0,0x36,0x3B,Write,ACK
57.773810259999998,0,0x36,0xA2,Read,ACK
57.773839754000001,0,0x36,0x00,Read,NAK
57.774020161999999,0,0x36,0x3C,Write,ACK
57.774168375999999,0,0x36,0x80,Read,ACK
57.774197852000000,0,0x36,0x16,Read,NAK
57.774376592000003,0,0x36,0x3D,Write,ACK
57.774525238000003,0,0x36,0x00,Read,ACK
57.774554715999997,0,0x36,0x10,Read,ACK
57.774734174000002,0,0x36,0x3E,Write,ACK
57.774882517999998,0,0x36,0x1C,Read,ACK
57.774911992000000,0,0x36,0x01,Read,NAK
57.775091451999998,0,0x36,0x3F,Write,ACK
57.775240095999997,0,0x36,0x00,Read,ACK
57.775269551999997,0,0x36,0xE0,Read,NAK
57.781788155999998,0,0x36,0x40,Write,ACK
57.781939596000001,0,0x36,0xFC,Read,ACK
57.781965792000001,0,0x36,0x03,Read,NAK
57.782161778000003,0,0x36,0x41,Write,ACK
57.782320626000001,0,0x36,0x00,Read,ACK
57.782350102000002,0,0x36,0x00,Read,NAK
57.782537075999997,0,0x36,0x42,Write,ACK
57.782689666000003,0,0x36,0x00,Read,ACK
57.782719161999999,0,0x36,0x0B,Read,NAK
57.782903072000003,0,0x36,0x21,Write,NAK
57.783058402000002,0,0x36,0x16,Read,ACK
57.783087879999997,0,0x36,0x00,Read,ACK
57.783273174000001,0,0x36,0x44,Write,ACK
57.783425672000000,0,0x36,0x60,Read,ACK
57.783455140000001,0,0x36,0xD6,Read,NAK
57.783639299999997,0,0x36,0x45,Write,ACK
57.783792013999999,0,0x36,0x63,Read,ACK
57.783821488000001,0,0x36,0x04,Read,NAK
57.784006152000003,0,0x36,0x46,Write,ACK
57.784158865999999,0,0x36,0x00,Read,ACK
57.784188340000000,0,0x36,0x32,Read,NAK
57.784374464000003,0,0x36,0x47,Write,ACK
57.784526249999999,0,0x36,0x4E,Read,ACK
57.784555705999999,0,0x36,0xFF,Read,NAK
57.784741009999998,0,0x36,0x48,Write,ACK
57.784893597999996,0,0x36,0x30,Read,ACK
57.784923073999998,0,0x36,0x60,Read,NAK
57.785108596000001,0,0x36,0x49,Write,ACK
57.785261822000002,0,0x36,0x40,Read,ACK
57.785291297999997,0,0x36,0x22,Read,NAK
57.785576910000003,0,0x36,0x4A,Write,ACK
57.785766897999999,0,0x36,0x00,Read,ACK
57.785796374000000,0,0x36,0x11,Read,NAK
57.786016144000001,0,0x36,0x4B,Write,ACK
57.786176961999999,0,0x36,0x8B,Read,ACK
57.786206460000002,0,0x36,0x01,Read,NAK
57.786707880000002,0,0x36,0x4C,Write,ACK
57.786870673999999,0,0x36,0xFF,Read,ACK
57.786900150000001,0,0x36,0xFF,Read,NAK
57.787100656000000,0,0x36,0x4D,Write,ACK
57.787260349999997,0,0x36,0xFF,Read,ACK
57.787289813999998,0,0x36,0xFF,Read,NAK
57.787486991999998,0,0x36,0x4E,Write,ACK
57.787645611999999,0,0x36,0xDD,Read,ACK
57.787675106000002,0,0x36,0xDB,Read,NAK
57.787873427999997,0,0x36,0x4F,Write,ACK
57.788032168000001,0,0x36,0x8D,Read,ACK
57.788061657999997,0,0x36,0x11,Read,NAK
57.793661835999998,0,0x36,0xB0,Write,ACK
57.793827796000002,0,0x36,0x00,Read,ACK
57.793857269999997,0,0x36,0x00,Read,NAK
57.794061714000001,0,0x36,0xB1,Write,ACK
57.794218291999996,0,0x36,0x52,Read,ACK
57.794247755999997,0,0x36,0x6D,Read,NAK
57.794441691999999,0,0x36,0xB2,Write,ACK
57.794597748000001,0,0x36,0x01,Read,ACK
57.794627235999997,0,0x36,0x00,Read,NAK
57.794821249999998,0,0x36,0xB3,Write,ACK
57.794977613999997,0,0x36,0x0A,Read,ACK
57.795007108000000,0,0x36,0x2E,Read,NAK
57.795199455999999,0,0x36,0xB4,Write,ACK
57.795354037999999,0,0x36,0x80,Read,ACK
57.795383524000002,0,0x36,0x7F,Read,NAK
57.795575792000001,0,0x36,0xB5,Write,ACK
57.795730601999999,0,0x36,0x05,Read,ACK
57.795760072000000,0,0x36,0x00,Read,NAK
57.795952440000001,0,0x36,0xB6,Write,ACK
57.796108187999998,0,0x36,0x56,Read,ACK
57.796137659999999,0,0x36,0x13,Read,NAK
57.796330333999997,0,0x36,0xB7,Write,ACK
57.796487022000001,0,0x36,0x00,Read,ACK
57.796516492000002,0,0x36,0x06,Read,NAK
57.796709593999999,0,0x36,0xB8,Write,ACK
57.796864595999999,0,0x36,0x00,Read,ACK
57.796890756000003,0,0x36,0x00,Read,ACK
57.797086458000003,0,0x36,0xB9,Write,ACK
57.797241456000002,0,0x36,0x6B,Read,ACK
57.797270935999997,0,0x36,0x00,Read,NAK
57.797479957999997,0,0x36,0xBA,Write,ACK
57.797635180000000,0,0x36,0x0C,Read,ACK
57.797664654000002,0,0x36,0x09,Read,NAK
57.797877653999997,0,0x36,0xBB,Write,ACK
57.798037760000000,0,0x36,0x55,Read,ACK
57.798067252000003,0,0x36,0x00,Read,NAK
57.798265452000003,0,0x36,0xBC,Write,ACK
57.798424197999999,0,0x36,0x25,Read,ACK
57.798453678000001,0,0x36,0x01,Read,NAK
57.798650930000001,0,0x36,0xBD,Write,ACK
57.798809290000001,0,0x36,0x04,Read,ACK
57.798835439999998,0,0x36,0x01,Read,ACK
57.799035812000000,0,0x36,0xBE,Write,ACK
57.799194690000000,0,0x36,0x00,Read,ACK
57.799224160000001,0,0x36,0x00,Read,NAK
57.799419651999997,0,0x36,0xBF,Write,ACK
57.799578304000001,0,0x36,0x00,Read,ACK
57.799607776000002,0,0x36,0x00,Read,NAK
57.806157796000001,0,0x36,0xD0,Write,ACK
57.806349896000000,0,0x36,0x5C,Read,ACK
57.806379362000001,0,0x36,0x04,Read,NAK
57.806607145999997,0,0x36,0xD1,Write,ACK
57.806769039999999,0,0x36,0x00,Read,ACK
57.806798514000000,0,0x36,0x00,Read,NAK
57.806997236000001,0,0x36,0xD2,Write,ACK
57.807156620000001,0,0x36,0x00,Read,ACK
57.807186102000003,0,0x36,0x00,Read,NAK
57.807383770000001,0,0x36,0xD3,Write,ACK
57.807542738000002,0,0x36,0x00,Read,ACK
57.807572213999997,0,0x36,0x00,Read,NAK
57.807769170000000,0,0x36,0xD4,Write,ACK
57.807928550000000,0,0x36,0x00,Read,ACK
57.807958034000002,0,0x36,0x00,Read,NAK
57.808154358000003,0,0x36,0xD5,Write,ACK
57.808312692000001,0,0x36,0x00,Read,ACK
57.808342185999997,0,0x36,0x00,Read,NAK
57.808538812000002,0,0x36,0xD6,Write,ACK
57.808697582000001,0,0x36,0x00,Read,ACK
57.808727054000002,0,0x36,0x00,Read,NAK
57.808924521999998,0,0x36,0xD7,Write,ACK
57.809082334000003,0,0x36,0x00,Read,ACK
57.809111829999999,0,0x36,0x00,Read,NAK
57.809308358000003,0,0x36,0xD8,Write,ACK
57.809484511999997,0,0x36,0x00,Read,ACK
57.809513977999998,0,0x36,0x00,Read,NAK
57.809713846000001,0,0x36,0xD9,Write,ACK
57.809867099999998,0,0x36,0x00,Read,ACK
57.809896567999999,0,0x36,0x00,Read,NAK
57.810081953999997,0,0x36,0xDA,Write,ACK
57.810234663999999,0,0x36,0x00,Read,ACK
57.810264156000002,0,0x36,0x00,Read,NAK
57.810449749999997,0,0x36,0xDB,Write,ACK
57.810602684000003,0,0x36,0x10,Read,ACK
57.810632148000003,0,0x36,0x00,Read,NAK
57.810818161999997,0,0x36,0xDC,Write,ACK
57.810970787999999,0,0x36,0x04,Read,ACK
57.811000254000000,0,0x36,0x00,Read,NAK
57.811185318000000,0,0x36,0xDD,Write,ACK
57.811337612000003,0,0x36,0xFF,Read,ACK
57.811367087999997,0,0x36,0xFF,Read,NAK
57.811551358000003,0,0x36,0xDE,Write,ACK
57.811703649999998,0,0x36,0x2D,Read,ACK
57.811733132000001,0,0x36,0x60,Read,NAK
57.811918206000001,0,0x36,0xDF,Write,ACK
57.812070695999999,0,0x36,0xDD,Read,ACK
57.812100194000003,0,0x36,0x10,Read,NAK
57.817587883999998,0,0x36,0xE0,Write,ACK
57.817742662000001,0,0x36,0x71,Read,ACK
57.817772163999997,0,0x36,0x07,Read,NAK
57.817955779999998,0,0x36,0xE1,Write,ACK
57.818105692000003,0,0x36,0x00,Read,ACK
57.818135163999997,0,0x36,0x00,Read,NAK
57.818317204000003,0,0x36,0xE2,Write,ACK
57.818467226000003,0,0x36,0x17,Read,ACK
57.818496701999997,0,0x36,0x06,Read,NAK
57.818678660000003,0,0x36,0xE3,Write,ACK
57.818830126000002,0,0x36,0x04,Read,ACK
57.818859605999997,0,0x36,0x00,Read,NAK
57.819041552000002,0,0x36,0xE4,Write,ACK
57.819191224000001,0,0x36,0xF6,Read,ACK
57.819220735999998,0,0x36,0x1D,Read,NAK
57.819402670000002,0,0x36,0xE5,Write,ACK
57.819552584000000,0,0x36,0x00,Read,ACK
57.819582060000002,0,0x36,0x00,Read,NAK
57.819762969999999,0,0x36,0xE6,Write,ACK
57.819912469999998,0,0x36,0x61,Read,ACK
57.819938604000001,0,0x36,0x2D,Read,ACK
57.820123160000001,0,0x36,0xE7,Write,ACK
57.820273276000002,0,0x36,0x01,Read,ACK
57.820302746000003,0,0x36,0x00,Read,NAK
57.820484911999998,0,0x36,0xE8,Write,ACK
57.820634175999999,0,0x36,0xBE,Read,ACK
57.820663668000002,0,0x36,0x4A,Read,NAK
57.820844262000001,0,0x36,0xE9,Write,ACK
57.820994165999998,0,0x36,0x00,Read,ACK
57.821023644000000,0,0x36,0x00,Read,NAK
57.821204346000002,0,0x36,0xEA,Write,ACK
57.821358824000001,0,0x36,0x90,Read,ACK
57.821388300000002,0,0x36,0x46,Read,NAK
57.821717845999999,0,0x36,0xEB,Write,ACK
57.821877149999999,0,0x36,0x00,Read,ACK
57.821906622000000,0,0x36,0x00,Read,NAK
57.822094084000000,0,0x36,0xEC,Write,ACK
57.822245651999999,0,0x36,0x00,Read,ACK
57.822275146000003,0,0x36,0x40,Read,NAK
57.822460835999998,0,0x36,0xED,Write,ACK
57.822612618000001,0,0x36,0x00,Read,ACK
57.822642096000003,0,0x36,0x00,Read,NAK
57.822827482000001,0,0x36,0xEE,Write,ACK
57.822979982000000,0,0x36,0x00,Read,ACK
57.823009474000003,0,0x36,0x7D,Read,NAK
57.823191653999999,0,0x33,0x77,Write,NAK
57.823347054000003,0,0x36,0x20,Read,ACK
57.823376527999997,0,0x36,0x08,Read,NAK
57.830099044000001,0,0x36,0xF0,Write,ACK
57.830276963999999,0,0x36,0xFF,Read,ACK
57.830306426000000,0,0x36,0xFF,Read,NAK
57.830495998000004,0,0x36,0xF1,Write,ACK
57.830649754000000,0,0x36,0xFF,Read,ACK
57.830679226000001,0,0x36,0xFF,Read,NAK
57.830865883999998,0,0x36,0xF2,Write,ACK
57.831018268000001,0,0x36,0xFF,Read,ACK
57.831047746000003,0,0x36,0xFF,Read,NAK
57.831232937999999,0,0x36,0xF3,Write,ACK
57.831385861999998,0,0x36,0xFF,Read,ACK
57.831415342000000,0,0x36,0xFF,Read,NAK
57.831600313999999,0,0x36,0xF4,Write,ACK
57.831752391999999,0,0x36,0xBD,Read,ACK
57.831781888000002,0,0x36,0x20,Read,NAK
57.831966862000002,0,0x36,0xF5,Write,ACK
57.832119169999999,0,0x36,0x00,Read,ACK
57.832148646000000,0,0x36,0x00,Read,NAK
57.832334242000002,0,0x36,0xF6,Write,ACK
57.832486328000002,0,0x36,0x00,Read,ACK
57.832515806000004,0,0x36,0x00,Read,NAK
57.832701086000000,0,0x36,0xF7,Write,ACK
57.832852868000003,0,0x36,0x01,Read,ACK
57.832882341999998,0,0x36,0xF8,Read,NAK
57.833066698000003,0,0x36,0xF8,Write,ACK
57.833220236000003,0,0x36,0xBE,Read,ACK
57.833249731999999,0,0x36,0x3F,Read,NAK
57.833529792000000,0,0x36,0xF9,Write,ACK
57.833686657999998,0,0x36,0x80,Read,ACK
57.833716162000002,0,0x36,0x5D,Read,NAK
57.833904984000000,0,0x36,0xFA,Write,ACK
57.834058425999999,0,0x36,0x32,Read,ACK
57.834087910000001,0,0x36,0x00,Read,NAK
57.834273813999999,0,0x36,0xFB,Write,ACK
57.834426127999997,0,0x36,0x7A,Read,ACK
57.834455581999997,0,0x36,0xD6,Read,NAK
57.834639430000003,0,0x36,0xFC,Write,ACK
57.834792135999997,0,0x36,0x20,Read,ACK
57.834821624000000,0,0x36,0x00,Read,NAK
57.835008260000002,0,0x36,0xFD,Write,ACK
57.835159396000002,0,0x36,0x10,Read,ACK
57.835188877999997,0,0x36,0x29,Read,NAK
57.835373748000002,0,0x36,0xFE,Write,ACK
57.835526162000001,0,0x36,0x62,Read,ACK
57.835555620000001,0,0x36,0xDA,Read,NAK
57.835740612000002,0,0x36,0xFF,Write,ACK
57.835891973999999,0,0x36,0x30,Read,ACK
57.835921462000002,0,0x36,0x60,Read,NAK
57.841918178000000,0,0x36,0x38,Write,ACK
57.842463051999999,0,0x36,0x27,Read,ACK
57.842492534000002,0,0x36,0x00,Read,NAK
57.842692409999998,0,0x36,0x39,Write,ACK
57.842843772000002,0,0x36,0x20,Read,ACK
57.842873244000003,0,0x36,0x15,Read,NAK
57.843057801999997,0,0x36,0x18,Write,ACK
57.843207788000001,0,0x36,0x8F,Read,ACK
57.843237287999997,0,0x36,0x11,Read,NAK
57.843419455999999,0,0x36,0x23,Write,ACK
57.843570155999998,0,0x36,0x8D,Read,ACK
57.843599660000002,0,0x36,0x11,Read,NAK
57.843782034000000,0,0x36,0x35,Write,ACK
57.843931826000002,0,0x36,0x8C,Read,ACK
57.843961288000003,0,0x36,0x11,Read,NAK
57.844147430000000,0,0x36,0x43,Write,ACK
57.844297640000001,0,0x36,0x16,Read,ACK
57.844327120000003,0,0x36,0x01,Read,NAK
57.844513661999997,0,0x36,0x4B,Write,ACK
57.844663336000004,0,0x36,0x8B,Read,ACK
57.844692817999999,0,0x36,0x01,Read,NAK
57.844878946000001,0,0x36,0xB1,Write,ACK
57.845028960000000,0,0x36,0x56,Read,ACK
57.845058434000002,0,0x36,0x6D,Read,NAK
57.845244430000001,0,0x36,0xD0,Write,ACK
57.845398916000001,0,0x36,0xC2,Read,ACK
57.845428407999997,0,0x36,0x04,Read,NAK
57.845614730000001,0,0x36,0xB3,Write,ACK
57.845765041999996,0,0x36,0xDB,Read,ACK
57.845794540000000,0,0x36,0x2D,Read,NAK
57.845979104000001,0,0x36,0x4D,Write,ACK
57.846128358000001,0,0x36,0xFF,Read,ACK
57.846157832000003,0,0x36,0xFF,Read,NAK
57.846406150000000,0,0x36,0x0A,Write,ACK
57.846558745999999,0,0x36,0xA6,Read,ACK
57.846588238000002,0,0x36,0x00,Read,NAK
57.846798651999997,0,0x36,0x0B,Write,ACK
57.846949651999999,0,0x36,0xA2,Read,ACK
57.846979144000002,0,0x36,0x00,Read,NAK
57.847164346000000,0,0x36,0x09,Write,ACK
57.847313933999999,0,0x36,0x62,Read,ACK
57.847343385999999,0,0x36,0xDA,Read,NAK
57.847553908000002,0,0x36,0x4B,Write,ACK
57.847705462000000,0,0x36,0x8B,Read,ACK
57.847734932000002,0,0x36,0x01,Read,NAK
57.847953777999997,0,0x36,0x43,Write,ACK
57.848105441999998,0,0x36,0x16,Read,ACK
57.848134918000000,0,0x36,0x01,Read,NAK
57.876763707999999,0,0x36,0x08,Write,ACK
57.876793487999997,0,0x36,0xCD,Write,ACK
57.876823289999997,0,0x36,0x1D,Write,ACK
57.877047752000003,0,0x36,0x06,Write,ACK
57.877204614000000,0,0x36,0x24,Read,ACK
57.877234090000002,0,0x36,0x60,Read,NAK
57.878000198000002,0,0x36,0x09,Write,ACK
57.878161450000000,0,0x36,0x62,Read,ACK
57.878190910000001,0,0x36,0xDA,Read,NAK
57.878974516000000,0,0x36,0x0B,Write,ACK
57.879184291999998,0,0x36,0xA2,Read,ACK
57.879213794000002,0,0x36,0x00,Read,NAK
57.879939559999997,0,0x36,0x09,Write,ACK
57.880147162000000,0,0x36,0x62,Read,ACK
57.880176622000000,0,0x36,0xDA,Read,NAK
57.880965228000001,0,0x36,0x06,Write,ACK
57.881174917999999,0,0x36,0x24,Read,ACK
57.881204404000002,0,0x36,0x60,Read,NAK
57.882040607999997,0,0x36,0x05,Write,ACK
57.882237642000000,0,0x36,0xDF,Read,ACK
57.882267145999997,0,0x36,0x10,Read,NAK
57.882844093999999,0,0x36,0x4D,Write,ACK
57.883049608000000,0,0x36,0xFF,Read,ACK
57.883079078000002,0,0x36,0xFF,Read,NAK
57.884037132000003,0,0x69,0xBD,Write,ACK
57.884253794000003,0,0x69,0xEC,Read,NAK
57.884469924000001,0,0x69,0xBD,Write,ACK
57.884499730000002,0,0x69,0xED,Write,ACK
57.885237578000002,0,0x69,0xB4,Write,ACK
57.885448535999998,0,0x69,0x33,Read,NAK
57.885661730000002,0,0x69,0xB3,Write,ACK
57.885857868000002,0,0x69,0xE0,Read,NAK
57.886101386000000,0,0x69,0xB4,Write,ACK
57.886292128000001,0,0x69,0x33,Read,NAK
57.887069048000001,0,0x69,0xB3,Write,ACK
57.887277791999999,0,0x69,0xE0,Read,NAK
57.888038160000001,0,0x69,0xB4,Write,ACK
57.888245261999998,0,0x69,0x33,Read,NAK
57.888461055999997,0,0x69,0xB7,Write,ACK
57.888647626000001,0,0x69,0x15,Read,NAK
57.889413816000001,0,0x36,0xD0,Write,ACK
57.889603498000000,0,0x36,0xC2,Read,ACK
57.889632982000002,0,0x36,0x04,Read,NAK
57.890208758000000,0,0x36,0xB3,Write,ACK
57.890404590000003,0,0x36,0xDB,Read,ACK
57.890434096000000,0,0x36,0x2D,Read,NAK
57.891183607999999,0,0x69,0xB1,Write,ACK
57.891382161999999,0,0x69,0x7A,Read,NAK
57.892096891999998,0,0x69,0xB2,Write,ACK
57.892290522000003,0,0x69,0xDF,Read,NAK
57.893002564000000,0,0x69,0xB3,Write,ACK
57.893197151999999,0,0x69,0xE0,Read,NAK
57.893916676000003,0,0x69,0xB4,Write,ACK
57.894072629999997,0,0x69,0x33,Read,NAK
57.894287276000000,0,0x69,0xB5,Write,ACK
57.894466150000000,0,0x69,0x00,Read,NAK
57.895180154000002,0,0x69,0xB6,Write,ACK
57.895374107999999,0,0x69,0xFF,Read,NAK
57.896085620000001,0,0x69,0xB7,Write,ACK
57.896279798000002,0,0x69,0x15,Read,NAK
57.896992644000001,0,0x69,0xB8,Write,ACK
57.897188604000000,0,0x69,0x38,Read,NAK
57.897983951999997,0,0x69,0xB9,Write,ACK
57.898164272000002,0,0x69,0x4B,Read,NAK
57.898772242000000,0,0x69,0xBD,Write,ACK
57.898982852000003,0,0x69,0x9F,Read,NAK
57.899200751999999,0,0x69,0xBB,Write,ACK
57.899388379999998,0,0x69,0x16,Read,NAK
57.900144132000001,0,0x69,0xBC,Write,ACK
57.900352161999997,0,0x69,0x60,Read,NAK
57.900571814000003,0,0x69,0xBD,Write,ACK
57.900759848000000,0,0x69,0xEC,Read,NAK
57.901522497999999,0,0x69,0xBE,Write,ACK
57.901689179999998,0,0x69,0x34,Read,NAK
57.901916759999999,0,0x69,0xBF,Write,ACK
57.902109463999999,0,0x69,0x00,Read,NAK
57.902870876000001,0,0x69,0xC0,Write,ACK
57.903077844000002,0,0x69,0x92,Read,NAK
57.903296976000000,0,0x69,0xC1,Write,ACK
57.903484808000002,0,0x69,0x10,Read,NAK
57.904239326000003,0,0x69,0xC2,Write,ACK
57.904446112000002,0,0x69,0x00,Read,NAK
57.904665024000003,0,0x69,0xC3,Write,ACK
57.904851600000001,0,0x69,0x68,Read,NAK
57.905643820000002,0,0x69,0xB7,Write,ACK
57.905836628000003,0,0x69,0x15,Read,NAK
57.906055148000000,0,0x69,0xBC,Write,ACK
57.906236094000000,0,0x69,0x60,Read,NAK
57.907112194000000,0,0x36,0x0A,Write,ACK
57.907333532000003,0,0x36,0xA6,Read,ACK
57.907363021999998,0,0x36,0x00,Read,NAK
57.908075474000000,0,0x36,0x0B,Write,ACK
57.908268262000000,0,0x36,0xA2,Read,ACK
57.908297750000003,0,0x36,0x00,Read,NAK
57.908975531999999,0,0x36,0x09,Write,ACK
57.909165723999998,0,0x36,0x62,Read,ACK
57.909195199999999,0,0x36,0xDA,Read,NAK
57.909932666000003,0,0x36,0x43,Write,ACK
57.910106954000000,0,0x36,0x16,Read,ACK
57.910136397999999,0,0x36,0x01,Read,NAK
57.910427218000002,0,0x36,0x4B,Write,ACK
57.910607096000000,0,0x36,0x8B,Read,ACK
57.910636580000002,0,0x36,0x01,Read,NAK
57.913076216000000,0,0x36,0x0B,Write,ACK
57.913298189999999,0,0x36,0xA2,Read,ACK
57.913327674000001,0,0x36,0x00,Read,NAK
57.913596411999997,0,0x36,0x09,Write,ACK
57.913767043999997,0,0x36,0x62,Read,ACK
57.913796490000003,0,0x36,0xDA,Read,NAK
58.228917369999998,,0x7F,,Read,NAK
